Id,Time[ns],0:I²C: Address/Data
1,143165450.00,Start
2,143168086.00,Address write: 40
3,143185570.00,Write
4,143188518.00,ACK
5,143193814.00,Data write: 00
6,143215464.00,ACK
7,143222400.00,Start repeat
8,143224996.00,Address read: 41
9,143242490.00,Read
10,143245976.00,ACK
11,143250812.00,Data read: 00
12,143270814.00,NACK
13,143277722.00,Stop
14,144365082.00,Start
15,144367718.00,Address write: 40
16,144385202.00,Write
17,144388146.00,ACK
18,144393448.00,Data write: 20
19,144415588.00,ACK
20,144420696.00,Data write: 6D
21,144443202.00,ACK
22,144448266.00,Data write: AC
23,144470772.00,ACK
24,144475894.00,Data write: 01
25,144498386.00,ACK
26,144503394.00,Data write: 20
27,144525896.00,ACK
28,144530944.00,Data write: 00
29,144553426.00,ACK
30,144558444.00,Data write: 00
31,144580960.00,ACK
32,144585992.00,Data write: 00
33,144608514.00,ACK
34,144613492.00,Data write: 00
35,144635988.00,ACK
36,144641042.00,Data write: 38
37,144663578.00,ACK
38,144668588.00,Data write: 84
39,144691088.00,ACK
40,144697572.00,Stop
41,145373168.00,Start
42,145375802.00,Address write: 40
43,145393286.00,Write
44,145396234.00,ACK
45,145401482.00,Data write: 02
46,145423118.00,ACK
47,145428252.00,Data write: A5
48,145450148.00,ACK
49,145456660.00,Stop
50,146212406.00,Start
51,146215038.00,Address write: 40
52,146232526.00,Write
53,146235446.00,ACK
54,146240670.00,Data write: 00
55,146262326.00,ACK
56,146269330.00,Start repeat
57,146271928.00,Address read: 41
58,146289422.00,Read
59,146292900.00,ACK
60,146297768.00,Data read: 03
61,146317772.00,NACK
62,146324658.00,Stop
63,146980646.00,Start
64,146983280.00,Address write: 40
65,147000764.00,Write
66,147003716.00,ACK
67,147008960.00,Data write: 06
68,147030616.00,ACK
69,147037644.00,Start repeat
70,147040242.00,Address read: 41
71,147057736.00,Read
72,147061452.00,ACK
73,147066332.00,Data read: 0E
74,147086338.00,ACK
75,147091608.00,Data read: 00
76,147111610.00,NACK
77,147118342.00,Stop
78,148002630.00,Start
79,148005266.00,Address write: 40
80,148022750.00,Write
81,148025676.00,ACK
82,148030944.00,Data write: 20
83,148053056.00,ACK
84,148060030.00,Start repeat
85,148062626.00,Address read: 41
86,148080122.00,Read
87,148084478.00,ACK
88,148089442.00,Data read: 6D
89,148109450.00,ACK
90,148114716.00,Data read: AC
91,148134724.00,ACK
92,148139894.00,Data read: 01
93,148159898.00,ACK
94,148165044.00,Data read: 20
95,148185046.00,ACK
96,148190192.00,Data read: 00
97,148210196.00,ACK
98,148215342.00,Data read: 00
99,148235346.00,ACK
100,148240492.00,Data read: 04
101,148260496.00,ACK
102,148265642.00,Data read: 00
103,148285644.00,ACK
104,148290792.00,Data read: 00
105,148310796.00,ACK
106,148315940.00,Data read: 01
107,148335946.00,ACK
108,148341090.00,Data read: 00
109,148361094.00,ACK
110,148366240.00,Data read: 02
111,148386244.00,ACK
112,148391390.00,Data read: 1B
113,148411396.00,ACK
114,148416540.00,Data read: 53
115,148436542.00,NACK
116,148443252.00,Stop
117,149507984.00,Start
118,149510618.00,Address write: 40
119,149528104.00,Write
120,149531040.00,ACK
121,149536324.00,Data write: 02
122,149557966.00,ACK
123,149563096.00,Data write: 5A
124,149584786.00,ACK
125,149591278.00,Stop
126,597304110.00,Start
127,597306746.00,Address write: 40
128,597324230.00,Write
129,597327152.00,ACK
130,597332424.00,Data write: 00
131,597354054.00,ACK
132,597361010.00,Start repeat
133,597363608.00,Address read: 41
134,597381100.00,Read
135,597384598.00,ACK
136,597389522.00,Data read: 00
137,597409526.00,NACK
138,597416332.00,Stop
139,598217498.00,Start
140,598220132.00,Address write: 40
141,598237618.00,Write
142,598240560.00,ACK
143,598245862.00,Data write: 20
144,598268000.00,ACK
145,598273110.00,Data write: 6D
146,598295612.00,ACK
147,598300680.00,Data write: AC
148,598323166.00,ACK
149,598328310.00,Data write: 01
150,598350822.00,ACK
151,598355858.00,Data write: 24
152,598378372.00,ACK
153,598383484.00,Data write: 00
154,598405986.00,ACK
155,598410982.00,Data write: 00
156,598433494.00,ACK
157,598438558.00,Data write: 04
158,598461068.00,ACK
159,598466082.00,Data write: 00
160,598488596.00,ACK
161,598493604.00,Data write: 80
162,598516110.00,ACK
163,598521078.00,Data write: E0
164,598543598.00,ACK
165,598548606.00,Data write: 00
166,598571110.00,ACK
167,598576080.00,Data write: 00
168,598598576.00,ACK
169,598603602.00,Data write: FF
170,598626110.00,ACK
171,598631080.00,Data write: 31
172,598653578.00,ACK
173,598660008.00,Stop
174,599337556.00,Start
175,599340192.00,Address write: 40
176,599357676.00,Write
177,599360614.00,ACK
178,599365846.00,Data write: 02
179,599387496.00,ACK
180,599392592.00,Data write: A5
181,599414502.00,ACK
182,599420998.00,Stop
183,600040172.00,Start
184,600042806.00,Address write: 40
185,600060290.00,Write
186,600063238.00,ACK
187,600068486.00,Data write: 00
188,600090136.00,ACK
189,600097122.00,Start repeat
190,600099716.00,Address read: 41
191,600117212.00,Read
192,600120684.00,ACK
193,600125558.00,Data read: 04
194,600145562.00,NACK
195,600152392.00,Stop
196,601261754.00,Start
197,601264388.00,Address write: 40
198,601281874.00,Write
199,601284824.00,ACK
200,601290068.00,Data write: 01
201,601311702.00,ACK
202,601318730.00,Start repeat
203,601321326.00,Address read: 41
204,601338820.00,Read
205,601342272.00,ACK
206,601347166.00,Data read: 04
207,601367168.00,NACK
208,601373974.00,Stop
209,602052444.00,Start
210,602055078.00,Address write: 40
211,602072562.00,Write
212,602075498.00,ACK
213,602080758.00,Data write: 02
214,602102420.00,ACK
215,602107556.00,Data write: 5A
216,602129258.00,ACK
217,602135762.00,Stop
218,1511026902.00,Start
219,1511029536.00,Address write: 40
220,1511047022.00,Write
221,1511049950.00,ACK
222,1511055266.00,Data write: 00
223,1511076910.00,ACK
224,1511083926.00,Start repeat
225,1511086522.00,Address read: 41
226,1511104018.00,Read
227,1511107476.00,ACK
228,1511112364.00,Data read: 00
229,1511132368.00,NACK
230,1511139174.00,Stop
231,1537226478.00,Start
232,1537229112.00,Address write: 40
233,1537246598.00,Write
234,1537249550.00,ACK
235,1537254892.00,Data write: 20
236,1537277034.00,ACK
237,1537282190.00,Data write: 6D
238,1537304688.00,ACK
239,1537309686.00,Data write: AC
240,1537332196.00,ACK
241,1537337290.00,Data write: 01
242,1537359804.00,ACK
243,1537364790.00,Data write: 22
244,1537387294.00,ACK
245,1537392338.00,Data write: 00
246,1537414822.00,ACK
247,1537419838.00,Data write: 00
248,1537442352.00,ACK
249,1537447388.00,Data write: 04
250,1537469902.00,ACK
251,1537474888.00,Data write: 02
252,1537497384.00,ACK
253,1537502436.00,Data write: 00
254,1537524972.00,ACK
255,1537529986.00,Data write: 20
256,1537552482.00,ACK
257,1537557536.00,Data write: 00
258,1537580054.00,ACK
259,1537585060.00,Data write: 00
260,1537607562.00,ACK
261,1537612586.00,Data write: 28
262,1537635068.00,ACK
263,1537640086.00,Data write: 06
264,1537662578.00,ACK
265,1537667634.00,Data write: 00
266,1537690126.00,ACK
267,1537695134.00,Data write: 20
268,1537717638.00,ACK
269,1537722680.00,Data write: D5
270,1537745166.00,ACK
271,1537750184.00,Data write: 00
272,1537772678.00,ACK
273,1537777732.00,Data write: 00
274,1537800228.00,ACK
275,1537805232.00,Data write: 00
276,1537827732.00,ACK
277,1537832780.00,Data write: EB
278,1537855284.00,ACK
279,1537860282.00,Data write: 00
280,1537882790.00,ACK
281,1537887856.00,Data write: 00
282,1537910380.00,ACK
283,1537915382.00,Data write: 00
284,1537937868.00,ACK
285,1537942980.00,Data write: 69
286,1537965482.00,ACK
287,1537970530.00,Data write: 06
288,1537993012.00,ACK
289,1537998080.00,Data write: 00
290,1538020600.00,ACK
291,1538025580.00,Data write: 00
292,1538048088.00,ACK
293,1538053154.00,Data write: 00
294,1538075654.00,ACK
295,1538080654.00,Data write: 00
296,1538103160.00,ACK
297,1538108178.00,Data write: 00
298,1538130666.00,ACK
299,1538135678.00,Data write: 00
300,1538158174.00,ACK
301,1538163228.00,Data write: 00
302,1538185702.00,ACK
303,1538190678.00,Data write: 00
304,1538213166.00,ACK
305,1538218228.00,Data write: 00
306,1538240712.00,ACK
307,1538245726.00,Data write: 00
308,1538268242.00,ACK
309,1538273276.00,Data write: 00
310,1538295766.00,ACK
311,1538300776.00,Data write: 00
312,1538323272.00,ACK
313,1538328324.00,Data write: 00
314,1538350820.00,ACK
315,1538355824.00,Data write: 00
316,1538378326.00,ACK
317,1538383374.00,Data write: 00
318,1538405874.00,ACK
319,1538410874.00,Data write: 00
320,1538433378.00,ACK
321,1538438424.00,Data write: 00
322,1538460924.00,ACK
323,1538465924.00,Data write: 00
324,1538488412.00,ACK
325,1538493472.00,Data write: 00
326,1538515962.00,ACK
327,1538520972.00,Data write: 00
328,1538543472.00,ACK
329,1538548522.00,Data write: 00
330,1538571002.00,ACK
331,1538575972.00,Data write: 00
332,1538598450.00,ACK
333,1538603472.00,Data write: 00
334,1538625978.00,ACK
335,1538630970.00,Data write: 00
336,1538653486.00,ACK
337,1538658546.00,Data write: 00
338,1538681058.00,ACK
339,1538686070.00,Data write: 00
340,1538708590.00,ACK
341,1538713644.00,Data write: 00
342,1538736180.00,ACK
343,1538741170.00,Data write: 00
344,1538763666.00,ACK
345,1538768720.00,Data write: 00
346,1538791216.00,ACK
347,1538796218.00,Data write: 00
348,1538818720.00,ACK
349,1538823764.00,Data write: EF
350,1538846244.00,ACK
351,1538851242.00,Data write: 00
352,1538873758.00,ACK
353,1538878816.00,Data write: 00
354,1538901306.00,ACK
355,1538910264.00,Data write: 00
356,1538932768.00,ACK
357,1538937866.00,Data write: 00
358,1538960380.00,ACK
359,1538965440.00,Data write: 00
360,1538987972.00,ACK
361,1538993040.00,Data write: 00
362,1539015536.00,ACK
363,1539020540.00,Data write: 00
364,1539043048.00,ACK
365,1539048114.00,Data write: 00
366,1539070594.00,ACK
367,1539075564.00,Data write: 00
368,1539098064.00,ACK
369,1539103114.00,Data write: 00
370,1539125596.00,ACK
371,1539130614.00,Data write: 00
372,1539153124.00,ACK
373,1539158160.00,Data write: F1
374,1539180670.00,ACK
375,1539185664.00,Data write: 00
376,1539208156.00,ACK
377,1539213212.00,Data write: 00
378,1539235722.00,ACK
379,1539240736.00,Data write: 00
380,1539263252.00,ACK
381,1539268312.00,Data write: 1D
382,1539290838.00,ACK
383,1539295836.00,Data write: 0A
384,1539318328.00,ACK
385,1539323362.00,Data write: 00
386,1539345854.00,ACK
387,1539350860.00,Data write: 00
388,1539373362.00,ACK
389,1539378408.00,Data write: F5
390,1539400892.00,ACK
391,1539405910.00,Data write: 09
392,1539428398.00,ACK
393,1539433458.00,Data write: 00
394,1539455948.00,ACK
395,1539460958.00,Data write: 00
396,1539483456.00,ACK
397,1539488506.00,Data write: FD
398,1539511022.00,ACK
399,1539516032.00,Data write: 09
400,1539538550.00,ACK
401,1539543608.00,Data write: 00
402,1539566140.00,ACK
403,1539571156.00,Data write: 00
404,1539593646.00,ACK
405,1539598706.00,Data write: 00
406,1539621194.00,ACK
407,1539626206.00,Data write: 00
408,1539648718.00,ACK
409,1539653756.00,Data write: 00
410,1539676244.00,ACK
411,1539681256.00,Data write: 00
412,1539703752.00,ACK
413,1539708806.00,Data write: 00
414,1539731300.00,ACK
415,1539736306.00,Data write: 00
416,1539758806.00,ACK
417,1539763854.00,Data write: 00
418,1539786354.00,ACK
419,1539791354.00,Data write: 00
420,1539813860.00,ACK
421,1539818928.00,Data write: 00
422,1539841446.00,ACK
423,1539846454.00,Data write: 00
424,1539868930.00,ACK
425,1539873954.00,Data write: 00
426,1539896460.00,ACK
427,1539901452.00,Data write: 00
428,1539923966.00,ACK
429,1539929052.00,Data write: 35
430,1539951552.00,ACK
431,1539956626.00,Data write: 01
432,1539979144.00,ACK
433,1539984252.00,Data write: 00
434,1540006756.00,ACK
435,1540011752.00,Data write: 00
436,1540034264.00,ACK
437,1540039326.00,Data write: 00
438,1540061852.00,ACK
439,1540066850.00,Data write: 00
440,1540089336.00,ACK
441,1540094400.00,Data write: 00
442,1540116880.00,ACK
443,1540121900.00,Data write: 00
444,1540144410.00,ACK
445,1540149450.00,Data write: 00
446,1540171936.00,ACK
447,1540176948.00,Data write: 00
448,1540199444.00,ACK
449,1540204498.00,Data write: 00
450,1540226992.00,ACK
451,1540231998.00,Data write: 00
452,1540254498.00,ACK
453,1540259544.00,Data write: EB
454,1540282044.00,ACK
455,1540287048.00,Data write: 06
456,1540309554.00,ACK
457,1540314622.00,Data write: 00
458,1540337102.00,ACK
459,1540342096.00,Data write: 00
460,1540364590.00,ACK
461,1540369644.00,Data write: F3
462,1540392146.00,ACK
463,1540397146.00,Data write: 06
464,1540419652.00,ACK
465,1540424720.00,Data write: 00
466,1540447222.00,ACK
467,1540452220.00,Data write: 00
468,1540474732.00,ACK
469,1540479794.00,Data write: 13
470,1540502302.00,ACK
471,1540507318.00,Data write: 0A
472,1540529806.00,ACK
473,1540534844.00,Data write: 00
474,1540557340.00,ACK
475,1540562344.00,Data write: 00
476,1540584850.00,ACK
477,1540589918.00,Data write: 00
478,1540612422.00,ACK
479,1540617416.00,Data write: 00
480,1540639932.00,ACK
481,1540644992.00,Data write: 00
482,1540667520.00,ACK
483,1540672516.00,Data write: 00
484,1540695012.00,ACK
485,1540700042.00,Data write: 00
486,1540722540.00,ACK
487,1540727540.00,Data write: 00
488,1540750048.00,ACK
489,1540755116.00,Data write: 00
490,1540777598.00,ACK
491,1540782614.00,Data write: 00
492,1540805148.00,ACK
493,1540810214.00,Data write: 00
494,1540832700.00,ACK
495,1540837714.00,Data write: 00
496,1540860206.00,ACK
497,1540865240.00,Data write: 00
498,1540887734.00,ACK
499,1540892738.00,Data write: 00
500,1540915248.00,ACK
501,1540920314.00,Data write: 41
502,1540942820.00,ACK
503,1540947838.00,Data write: 01
504,1540970352.00,ACK
505,1540975412.00,Data write: 00
506,1540997904.00,ACK
507,1541002912.00,Data write: 00
508,1541025414.00,ACK
509,1541030436.00,Data write: 49
510,1541052926.00,ACK
511,1541057936.00,Data write: 01
512,1541080434.00,ACK
513,1541085486.00,Data write: 00
514,1541107988.00,ACK
515,1541112986.00,Data write: 00
516,1541135494.00,ACK
517,1541140534.00,Data write: 00
518,1541163048.00,ACK
519,1541168034.00,Data write: 00
520,1541190520.00,ACK
521,1541195584.00,Data write: 00
522,1541218070.00,ACK
523,1541223084.00,Data write: 00
524,1541245580.00,ACK
525,1541250634.00,Data write: 00
526,1541273150.00,ACK
527,1541278132.00,Data write: 00
528,1541300658.00,ACK
529,1541305708.00,Data write: 00
530,1541328186.00,ACK
531,1541333182.00,Data write: 00
532,1541355694.00,ACK
533,1541360732.00,Data write: 61
534,1541383224.00,ACK
535,1541388232.00,Data write: 06
536,1541410738.00,ACK
537,1541415806.00,Data write: 00
538,1541438308.00,ACK
539,1541443306.00,Data write: 00
540,1541465818.00,ACK
541,1541470880.00,Data write: 00
542,1541493414.00,ACK
543,1541498430.00,Data write: 00
544,1541520922.00,ACK
545,1541525980.00,Data write: 00
546,1541548474.00,ACK
547,1541553478.00,Data write: 00
548,1541575984.00,ACK
549,1541581028.00,Data write: 00
550,1541603516.00,ACK
551,1541608528.00,Data write: 00
552,1541631030.00,ACK
553,1541636078.00,Data write: 00
554,1541658560.00,ACK
555,1541663578.00,Data write: 00
556,1541686090.00,ACK
557,1541691128.00,Data write: 00
558,1541713636.00,ACK
559,1541718626.00,Data write: 00
560,1541741144.00,ACK
561,1541746202.00,Data write: 00
562,1541768732.00,ACK
563,1541773726.00,Data write: 00
564,1541796216.00,ACK
565,1541801272.00,Data write: E1
566,1541823764.00,ACK
567,1541828776.00,Data write: 06
568,1541851274.00,ACK
569,1541856326.00,Data write: 00
570,1541878802.00,ACK
571,1541883800.00,Data write: 00
572,1541906308.00,ACK
573,1541911524.00,Data write: 09
574,1541934022.00,ACK
575,1541939024.00,Data write: 0A
576,1541961530.00,ACK
577,1541966624.00,Data write: 00
578,1541989140.00,ACK
579,1541994222.00,Data write: 00
580,1542016728.00,ACK
581,1542021772.00,Data write: 2D
582,1542044256.00,ACK
583,1542049322.00,Data write: 01
584,1542071848.00,ACK
585,1542076872.00,Data write: 00
586,1542099356.00,ACK
587,1542104422.00,Data write: 00
588,1542126906.00,ACK
589,1542131920.00,Data write: 00
590,1542154432.00,ACK
591,1542159470.00,Data write: 00
592,1542181962.00,ACK
593,1542186994.00,Data write: 00
594,1542209490.00,ACK
595,1542214520.00,Data write: 00
596,1542237002.00,ACK
597,1542242020.00,Data write: 27
598,1542264508.00,ACK
599,1542269518.00,Data write: 0A
600,1542291998.00,ACK
601,1542297018.00,Data write: 00
602,1542319504.00,ACK
603,1542324518.00,Data write: 00
604,1542347014.00,ACK
605,1542352018.00,Data write: 2F
606,1542374520.00,ACK
607,1542379518.00,Data write: 0A
608,1542402030.00,ACK
609,1542407066.00,Data write: 00
610,1542429598.00,ACK
611,1542434616.00,Data write: 00
612,1542457126.00,ACK
613,1542462164.00,Data write: FB
614,1542484674.00,ACK
615,1542489716.00,Data write: 06
616,1542512200.00,ACK
617,1542517216.00,Data write: 00
618,1542539726.00,ACK
619,1542544764.00,Data write: 00
620,1542567276.00,ACK
621,1542572314.00,Data write: 00
622,1542594802.00,ACK
623,1542599814.00,Data write: 00
624,1542622310.00,ACK
625,1542627314.00,Data write: 00
626,1542649800.00,ACK
627,1542654814.00,Data write: 00
628,1542677330.00,ACK
629,1542682362.00,Data write: 29
630,1542704880.00,ACK
631,1542709912.00,Data write: 02
632,1542732410.00,ACK
633,1542737412.00,Data write: 00
634,1542759916.00,ACK
635,1542764912.00,Data write: 00
636,1542787404.00,ACK
637,1542792410.00,Data write: 51
638,1542814912.00,ACK
639,1542819910.00,Data write: 01
640,1542842416.00,ACK
641,1542847410.00,Data write: 00
642,1542869924.00,ACK
643,1542874960.00,Data write: 00
644,1542897474.00,ACK
645,1542902510.00,Data write: 03
646,1542925000.00,ACK
647,1542930084.00,Data write: 48
648,1542952594.00,ACK
649,1542957706.00,Data write: 85
650,1542980186.00,ACK
651,1542985284.00,Data write: 46
652,1543007818.00,ACK
653,1543012884.00,Data write: 00
654,1543035362.00,ACK
655,1543040406.00,Data write: F0
656,1543062888.00,ACK
657,1543067908.00,Data write: 20
658,1543090416.00,ACK
659,1543095454.00,Data write: F8
660,1543117966.00,ACK
661,1543123008.00,Data write: 00
662,1543145492.00,ACK
663,1543150506.00,Data write: 48
664,1543173020.00,ACK
665,1543178056.00,Data write: 00
666,1543200546.00,ACK
667,1543205606.00,Data write: 47
668,1543228116.00,ACK
669,1543233156.00,Data write: 3B
670,1543255640.00,ACK
671,1543260704.00,Data write: 0A
672,1543283188.00,ACK
673,1543288204.00,Data write: 00
674,1543310734.00,ACK
675,1543315754.00,Data write: 00
676,1543338244.00,ACK
677,1543343278.00,Data write: 28
678,1543365770.00,ACK
679,1543370802.00,Data write: 06
680,1543393320.00,ACK
681,1543398352.00,Data write: 00
682,1543420846.00,ACK
683,1543425902.00,Data write: 20
684,1543448438.00,ACK
685,1543453476.00,Data write: 08
686,1543475966.00,ACK
687,1543481002.00,Data write: 48
688,1543503496.00,ACK
689,1543508502.00,Data write: 09
690,1543531004.00,ACK
691,1543536000.00,Data write: 4A
692,1543558512.00,ACK
693,1543563550.00,Data write: 00
694,1543586062.00,ACK
695,1543591100.00,Data write: 21
696,1543613592.00,ACK
697,1543618600.00,Data write: 00
698,1543641102.00,ACK
699,1543646096.00,Data write: A1
700,1543668612.00,ACK
701,1543673646.00,Data write: 81
702,1543696144.00,ACK
703,1543701198.00,Data write: 42
704,1543723736.00,ACK
705,1543728772.00,Data write: 00
706,1543751264.00,ACK
707,1543756294.00,Data write: D9
708,1543778796.00,ACK
709,1543783798.00,Data write: 02
710,1543806306.00,ACK
711,1543811346.00,Data write: 44
712,1543833832.00,ACK
713,1543838872.00,Data write: 07
714,1543861384.00,ACK
715,1543866396.00,Data write: 48
716,1543888890.00,ACK
717,1543893896.00,Data write: 02
718,1543916402.00,ACK
719,1543921496.00,Data write: 60
720,1543943972.00,ACK
721,1543949070.00,Data write: 07
722,1543971586.00,ACK
723,1543976670.00,Data write: 48
724,1543999176.00,ACK
725,1544004194.00,Data write: 00
726,1544026724.00,ACK
727,1544031768.00,Data write: 47
728,1544054254.00,ACK
729,1544059290.00,Data write: FE
730,1544081806.00,ACK
731,1544086790.00,Data write: E7
732,1544109272.00,ACK
733,1544114290.00,Data write: FE
734,1544136802.00,ACK
735,1544141790.00,Data write: E7
736,1544164270.00,ACK
737,1544169290.00,Data write: FE
738,1544191782.00,ACK
739,1544196788.00,Data write: E7
740,1544219326.00,ACK
741,1544224364.00,Data write: FE
742,1544246858.00,ACK
743,1544251888.00,Data write: E7
744,1544274406.00,ACK
745,1544279388.00,Data write: FE
746,1544301872.00,ACK
747,1544306888.00,Data write: E7
748,1544329398.00,ACK
749,1544334386.00,Data write: FE
750,1544356906.00,ACK
751,1544361886.00,Data write: E7
752,1544384370.00,ACK
753,1544389388.00,Data write: 00
754,1544411872.00,ACK
755,1544416888.00,Data write: 00
756,1544439380.00,ACK
757,1544444388.00,Data write: 00
758,1544466904.00,ACK
759,1544471888.00,Data write: 00
760,1544494368.00,ACK
761,1544499388.00,Data write: 00
762,1544521896.00,ACK
763,1544526886.00,Data write: 20
764,1544549404.00,ACK
765,1544554386.00,Data write: 00
766,1544576886.00,ACK
767,1544581886.00,Data write: 00
768,1544604390.00,ACK
769,1544609386.00,Data write: 00
770,1544631896.00,ACK
771,1544636886.00,Data write: 00
772,1544659362.00,ACK
773,1544664384.00,Data write: 08
774,1544686872.00,ACK
775,1544691882.00,Data write: ED
776,1544714380.00,ACK
777,1544719384.00,Data write: 00
778,1544741888.00,ACK
779,1544746880.00,Data write: E0
780,1544769390.00,ACK
781,1544774380.00,Data write: C1
782,1544796894.00,ACK
783,1544801882.00,Data write: 00
784,1544824380.00,ACK
785,1544829382.00,Data write: 00
786,1544851868.00,ACK
787,1544856882.00,Data write: 00
788,1544879394.00,ACK
789,1544884382.00,Data write: 06
790,1544906896.00,ACK
791,1544911982.00,Data write: 4C
792,1544934486.00,ACK
793,1544939580.00,Data write: 01
794,1544962098.00,ACK
795,1544967180.00,Data write: 25
796,1544989666.00,ACK
797,1544994730.00,Data write: 06
798,1545017220.00,ACK
799,1545022280.00,Data write: 4E
800,1545044786.00,ACK
801,1545049830.00,Data write: 05
802,1545072352.00,ACK
803,1545077376.00,Data write: E0
804,1545099880.00,ACK
805,1545104876.00,Data write: E3
806,1545127386.00,ACK
807,1545132428.00,Data write: 68
808,1545154914.00,ACK
809,1545159952.00,Data write: 07
810,1545182294.00,ACK
811,1545187324.00,Data write: CC
812,1545209824.00,ACK
813,1545214852.00,Data write: 2B
814,1545237352.00,ACK
815,1545242376.00,Data write: 43
816,1545264898.00,ACK
817,1545269928.00,Data write: 0C
818,1545292426.00,ACK
819,1545297476.00,Data write: 3C
820,1545320016.00,ACK
821,1545325048.00,Data write: 98
822,1545347540.00,ACK
823,1545352574.00,Data write: 47
824,1545375066.00,ACK
825,1545380074.00,Data write: 10
826,1545402612.00,ACK
827,1545407674.00,Data write: 34
828,1545430158.00,ACK
829,1545435172.00,Data write: B4
830,1545457706.00,ACK
831,1545462772.00,Data write: 42
832,1545485254.00,ACK
833,1545490270.00,Data write: F7
834,1545512762.00,ACK
835,1545517770.00,Data write: D3
836,1545540268.00,ACK
837,1545545270.00,Data write: FF
838,1545567772.00,ACK
839,1545572768.00,Data write: F7
840,1545595280.00,ACK
841,1545600318.00,Data write: D2
842,1545622846.00,ACK
843,1545627868.00,Data write: FF
844,1545650378.00,ACK
845,1545655420.00,Data write: 68
846,1545677926.00,ACK
847,1545682970.00,Data write: 0A
848,1545705454.00,ACK
849,1545710470.00,Data write: 00
850,1545732980.00,ACK
851,1545738018.00,Data write: 00
852,1545760528.00,ACK
853,1545765568.00,Data write: 78
854,1545788056.00,ACK
855,1545793068.00,Data write: 0A
856,1545815560.00,ACK
857,1545820568.00,Data write: 00
858,1545843046.00,ACK
859,1545848068.00,Data write: 00
860,1545870576.00,ACK
861,1545875614.00,Data write: 80
862,1545898124.00,ACK
863,1545903164.00,Data write: B5
864,1545925654.00,ACK
865,1545930666.00,Data write: 00
866,1545953158.00,ACK
867,1545958164.00,Data write: F0
868,1545980644.00,ACK
869,1545985666.00,Data write: 05
870,1546008174.00,ACK
871,1546013212.00,Data write: F8
872,1546035722.00,ACK
873,1546040762.00,Data write: 80
874,1546063252.00,ACK
875,1546068262.00,Data write: BD
876,1546090760.00,ACK
877,1546095760.00,Data write: 80
878,1546118246.00,ACK
879,1546123260.00,Data write: B5
880,1546145776.00,ACK
881,1546150812.00,Data write: 00
882,1546173328.00,ACK
883,1546178360.00,Data write: F0
884,1546200860.00,ACK
885,1546205862.00,Data write: 02
886,1546228348.00,ACK
887,1546233360.00,Data write: F8
888,1546255860.00,ACK
889,1546260858.00,Data write: 80
890,1546283350.00,ACK
891,1546288358.00,Data write: BD
892,1546310858.00,ACK
893,1546315860.00,Data write: 70
894,1546338364.00,ACK
895,1546343360.00,Data write: 47
896,1546365852.00,ACK
897,1546370860.00,Data write: 70
898,1546393340.00,ACK
899,1546398360.00,Data write: 47
900,1546420846.00,ACK
901,1546425856.00,Data write: 80
902,1546448354.00,ACK
903,1546453356.00,Data write: B5
904,1546475860.00,ACK
905,1546480858.00,Data write: 00
906,1546503348.00,ACK
907,1546508356.00,Data write: F0
908,1546530836.00,ACK
909,1546535858.00,Data write: 09
910,1546558344.00,ACK
911,1546563354.00,Data write: F8
912,1546585854.00,ACK
913,1546590854.00,Data write: 80
914,1546613364.00,ACK
915,1546618404.00,Data write: BD
916,1546640934.00,ACK
917,1546645954.00,Data write: 80
918,1546668460.00,ACK
919,1546673452.00,Data write: B5
920,1546695968.00,ACK
921,1546701006.00,Data write: 00
922,1546723500.00,ACK
923,1546728552.00,Data write: F0
924,1546751034.00,ACK
925,1546756054.00,Data write: 27
926,1546778586.00,ACK
927,1546783652.00,Data write: F8
928,1546806138.00,ACK
929,1546811152.00,Data write: 80
930,1546833690.00,ACK
931,1546838750.00,Data write: BD
932,1546861244.00,ACK
933,1546866250.00,Data write: 80
934,1546888732.00,ACK
935,1546893750.00,Data write: B5
936,1546916240.00,ACK
937,1546921328.00,Data write: 00
938,1546943830.00,ACK
939,1546948924.00,Data write: F0
940,1546971424.00,ACK
941,1546976526.00,Data write: 24
942,1546999016.00,ACK
943,1547004048.00,Data write: F8
944,1547026566.00,ACK
945,1547031598.00,Data write: 80
946,1547054114.00,ACK
947,1547059148.00,Data write: BD
948,1547081664.00,ACK
949,1547086700.00,Data write: 10
950,1547109192.00,ACK
951,1547114246.00,Data write: B5
952,1547136784.00,ACK
953,1547141824.00,Data write: 00
954,1547164314.00,ACK
955,1547169346.00,Data write: F0
956,1547191866.00,ACK
957,1547196896.00,Data write: 9D
958,1547219378.00,ACK
959,1547224394.00,Data write: F9
960,1547246888.00,ACK
961,1547251922.00,Data write: 00
962,1547274452.00,ACK
963,1547279446.00,Data write: 28
964,1547301960.00,ACK
965,1547306998.00,Data write: 17
966,1547329508.00,ACK
967,1547334544.00,Data write: D0
968,1547357036.00,ACK
969,1547362046.00,Data write: 00
970,1547384562.00,ACK
971,1547389592.00,Data write: F0
972,1547412110.00,ACK
973,1547417142.00,Data write: 93
974,1547439634.00,ACK
975,1547444642.00,Data write: F8
976,1547467138.00,ACK
977,1547472144.00,Data write: 0B
978,1547494624.00,ACK
979,1547499644.00,Data write: 48
980,1547522152.00,ACK
981,1547527194.00,Data write: 42
982,1547549702.00,ACK
983,1547554744.00,Data write: 68
984,1547577232.00,ACK
985,1547582242.00,Data write: 51
986,1547604738.00,ACK
987,1547609742.00,Data write: 1C
988,1547632230.00,ACK
989,1547637242.00,Data write: 41
990,1547659760.00,ACK
991,1547664792.00,Data write: 60
992,1547687314.00,ACK
993,1547692342.00,Data write: 03
994,1547714842.00,ACK
995,1547719840.00,Data write: 68
996,1547742350.00,ACK
997,1547747390.00,Data write: 5C
998,1547769876.00,ACK
999,1547774940.00,Data write: 1E
1000,1547797418.00,ACK
1001,1547802440.00,Data write: 01
1002,1547824944.00,ACK
1003,1547829940.00,Data write: 2C
1004,1547852454.00,ACK
1005,1547857488.00,Data write: 04
1006,1547879998.00,ACK
1007,1547885036.00,Data write: D8
1008,1547907524.00,ACK
1009,1547912610.00,Data write: 92
1010,1547935114.00,ACK
1011,1547940212.00,Data write: 1C
1012,1547962704.00,ACK
1013,1547967812.00,Data write: 42
1014,1547990334.00,ACK
1015,1547995388.00,Data write: 60
1016,1548017882.00,ACK
1017,1548022912.00,Data write: 0B
1018,1548045410.00,ACK
1019,1548050436.00,Data write: 29
1020,1548072938.00,ACK
1021,1548077936.00,Data write: 07
1022,1548100444.00,ACK
1023,1548105482.00,Data write: D2
1024,1548127966.00,ACK
1025,1548132984.00,Data write: 08
1026,1548155494.00,ACK
1027,1548160532.00,Data write: E0
1028,1548183018.00,ACK
1029,1548188034.00,Data write: 03
1030,1548210524.00,ACK
1031,1548215534.00,Data write: 2B
1032,1548238014.00,ACK
1033,1548243032.00,Data write: 06
1034,1548265520.00,ACK
1035,1548270530.00,Data write: D1
1036,1548293024.00,ACK
1037,1548298030.00,Data write: 92
1038,1548320530.00,ACK
1039,1548325532.00,Data write: 1C
1040,1548348036.00,ACK
1041,1548353032.00,Data write: 42
1042,1548375522.00,ACK
1043,1548380532.00,Data write: 60
1044,1548403026.00,ACK
1045,1548408032.00,Data write: 03
1046,1548430508.00,ACK
1047,1548435530.00,Data write: 4A
1048,1548458014.00,ACK
1049,1548463028.00,Data write: 91
1050,1548485516.00,ACK
1051,1548490530.00,Data write: 42
1052,1548513044.00,ACK
1053,1548518080.00,Data write: 01
1054,1548540588.00,ACK
1055,1548545626.00,Data write: D3
1056,1548568138.00,ACK
1057,1548573178.00,Data write: 00
1058,1548595664.00,ACK
1059,1548600728.00,Data write: 21
1060,1548623208.00,ACK
1061,1548628228.00,Data write: 01
1062,1548650732.00,ACK
1063,1548655728.00,Data write: 60
1064,1548678242.00,ACK
1065,1548683278.00,Data write: 10
1066,1548705794.00,ACK
1067,1548710824.00,Data write: BD
1068,1548733318.00,ACK
1069,1548738326.00,Data write: 00
1070,1548760846.00,ACK
1071,1548765876.00,Data write: 00
1072,1548788394.00,ACK
1073,1548793426.00,Data write: 00
1074,1548815920.00,ACK
1075,1548820926.00,Data write: 20
1076,1548843426.00,ACK
1077,1548848422.00,Data write: 95
1078,1548870908.00,ACK
1079,1548875924.00,Data write: 11
1080,1548898432.00,ACK
1081,1548903474.00,Data write: 00
1082,1548925980.00,ACK
1083,1548931024.00,Data write: 00
1084,1548953506.00,ACK
1085,1548958522.00,Data write: 70
1086,1548981012.00,ACK
1087,1548986022.00,Data write: 47
1088,1549008520.00,ACK
1089,1549013522.00,Data write: 70
1090,1549036026.00,ACK
1091,1549041022.00,Data write: 47
1092,1549063532.00,ACK
1093,1549068570.00,Data write: B0
1094,1549091056.00,ACK
1095,1549096118.00,Data write: B5
1096,1549118646.00,ACK
1097,1549123670.00,Data write: 00
1098,1549146148.00,ACK
1099,1549151170.00,Data write: 28
1100,1549173680.00,ACK
1101,1549178720.00,Data write: 0B
1102,1549201212.00,ACK
1103,1549206216.00,Data write: DB
1104,1549228716.00,ACK
1105,1549233720.00,Data write: 1F
1106,1549256200.00,ACK
1107,1549261218.00,Data write: 23
1108,1549283704.00,ACK
1109,1549288720.00,Data write: 03
1110,1549311212.00,ACK
1111,1549316218.00,Data write: 40
1112,1549338716.00,ACK
1113,1549343718.00,Data write: 01
1114,1549366222.00,ACK
1115,1549371218.00,Data write: 24
1116,1549393708.00,ACK
1117,1549398714.00,Data write: 9C
1118,1549421194.00,ACK
1119,1549426216.00,Data write: 40
1120,1549448702.00,ACK
1121,1549453716.00,Data write: 1B
1122,1549476208.00,ACK
1123,1549481216.00,Data write: 4B
1124,1549503714.00,ACK
1125,1549508716.00,Data write: 1C
1126,1549531200.00,ACK
1127,1549536216.00,Data write: 60
1128,1549558706.00,ACK
1129,1549563714.00,Data write: 03
1130,1549586194.00,ACK
1131,1549591214.00,Data write: 23
1132,1549613696.00,ACK
1133,1549618714.00,Data write: 04
1134,1549641206.00,ACK
1135,1549646214.00,Data write: 46
1136,1549668692.00,ACK
1137,1549673710.00,Data write: 9C
1138,1549696196.00,ACK
1139,1549701212.00,Data write: 43
1140,1549723704.00,ACK
1141,1549728712.00,Data write: 19
1142,1549751210.00,ACK
1143,1549756212.00,Data write: 4B
1144,1549778714.00,ACK
1145,1549783708.00,Data write: E3
1146,1549806198.00,ACK
1147,1549811212.00,Data write: 18
1148,1549833706.00,ACK
1149,1549838712.00,Data write: 06
1150,1549861192.00,ACK
1151,1549866208.00,Data write: E0
1152,1549888702.00,ACK
1153,1549893710.00,Data write: 0F
1154,1549916206.00,ACK
1155,1549921284.00,Data write: 23
1156,1549943798.00,ACK
1157,1549948910.00,Data write: 03
1158,1549971414.00,ACK
1159,1549976508.00,Data write: 40
1160,1549999004.00,ACK
1161,1550004058.00,Data write: 08
1162,1550026574.00,ACK
1163,1550031608.00,Data write: 3B
1164,1550054100.00,ACK
1165,1550059108.00,Data write: 03
1166,1550081608.00,ACK
1167,1550086608.00,Data write: 24
1168,1550109094.00,ACK
1169,1550114104.00,Data write: A3
1170,1550136622.00,ACK
1171,1550141656.00,Data write: 43
1172,1550164164.00,ACK
1173,1550169206.00,Data write: 13
1174,1550191690.00,ACK
1175,1550196706.00,Data write: 4C
1176,1550219218.00,ACK
1177,1550224256.00,Data write: 1B
1178,1550246766.00,ACK
1179,1550251804.00,Data write: 19
1180,1550274316.00,ACK
1181,1550279352.00,Data write: C4
1182,1550301846.00,ACK
1183,1550306904.00,Data write: 00
1184,1550329392.00,ACK
1185,1550334404.00,Data write: 18
1186,1550356920.00,ACK
1187,1550361952.00,Data write: 25
1188,1550384448.00,ACK
1189,1550389478.00,Data write: 25
1190,1550411992.00,ACK
1191,1550417002.00,Data write: 40
1192,1550439500.00,ACK
1193,1550444500.00,Data write: 89
1194,1550467006.00,ACK
1195,1550472002.00,Data write: 01
1196,1550494512.00,ACK
1197,1550499548.00,Data write: C9
1198,1550522038.00,ACK
1199,1550527098.00,Data write: B2
1200,1550549628.00,ACK
1201,1550554648.00,Data write: A9
1202,1550577134.00,ACK
1203,1550582200.00,Data write: 40
1204,1550604682.00,ACK
1205,1550609696.00,Data write: FF
1206,1550632212.00,ACK
1207,1550637250.00,Data write: 24
1208,1550659738.00,ACK
1209,1550664770.00,Data write: AC
1210,1550687286.00,ACK
1211,1550692298.00,Data write: 40
1212,1550714794.00,ACK
1213,1550719798.00,Data write: 1D
1214,1550742302.00,ACK
1215,1550747298.00,Data write: 68
1216,1550769808.00,ACK
1217,1550774844.00,Data write: A5
1218,1550797334.00,ACK
1219,1550802396.00,Data write: 43
1220,1550824926.00,ACK
1221,1550829946.00,Data write: 0D
1222,1550852432.00,ACK
1223,1550857496.00,Data write: 43
1224,1550879982.00,ACK
1225,1550884994.00,Data write: 1D
1226,1550907514.00,ACK
1227,1550912594.00,Data write: 60
1228,1550935104.00,ACK
1229,1550940196.00,Data write: 01
1230,1550962712.00,ACK
1231,1550967794.00,Data write: 2A
1232,1550990284.00,ACK
1233,1550995344.00,Data write: 08
1234,1551017832.00,ACK
1235,1551022890.00,Data write: D1
1236,1551045400.00,ACK
1237,1551050444.00,Data write: 00
1238,1551072968.00,ACK
1239,1551077994.00,Data write: 28
1240,1551100498.00,ACK
1241,1551105492.00,Data write: 13
1242,1551128000.00,ACK
1243,1551133040.00,Data write: DB
1244,1551155528.00,ACK
1245,1551160566.00,Data write: 1F
1246,1551183076.00,ACK
1247,1551188092.00,Data write: 21
1248,1551210584.00,ACK
1249,1551215590.00,Data write: 08
1250,1551238090.00,ACK
1251,1551243090.00,Data write: 40
1252,1551265580.00,ACK
1253,1551270590.00,Data write: 01
1254,1551293084.00,ACK
1255,1551298090.00,Data write: 21
1256,1551320586.00,ACK
1257,1551325586.00,Data write: 81
1258,1551348092.00,ACK
1259,1551353088.00,Data write: 40
1260,1551375602.00,ACK
1261,1551380638.00,Data write: 0B
1262,1551403174.00,ACK
1263,1551408188.00,Data write: 48
1264,1551430700.00,ACK
1265,1551435738.00,Data write: 01
1266,1551458246.00,ACK
1267,1551463288.00,Data write: 60
1268,1551485776.00,ACK
1269,1551490784.00,Data write: B0
1270,1551513290.00,ACK
1271,1551518284.00,Data write: BD
1272,1551540798.00,ACK
1273,1551545836.00,Data write: 00
1274,1551568328.00,ACK
1275,1551573386.00,Data write: 28
1276,1551595920.00,ACK
1277,1551600960.00,Data write: 0A
1278,1551623448.00,ACK
1279,1551628482.00,Data write: DB
1280,1551650972.00,ACK
1281,1551655984.00,Data write: 1F
1282,1551678520.00,ACK
1283,1551683584.00,Data write: 21
1284,1551706064.00,ACK
1285,1551711084.00,Data write: 55
1286,1551733608.00,ACK
1287,1551738634.00,Data write: 5D
1288,1551761120.00,ACK
1289,1551767588.00,Stop
1290,1553741318.00,Start
1291,1553743952.00,Address write: 40
1292,1553761436.00,Write
1293,1553764384.00,ACK
1294,1553769632.00,Data write: 02
1295,1553791284.00,ACK
1296,1553796352.00,Data write: A5
1297,1553818244.00,ACK
1298,1553824734.00,Stop
1299,1554429932.00,Start
1300,1554432566.00,Address write: 40
1301,1554450052.00,Write
1302,1554452990.00,ACK
1303,1554458246.00,Data write: 00
1304,1554479870.00,ACK
1305,1554486832.00,Start repeat
1306,1554489428.00,Address read: 41
1307,1554506922.00,Read
1308,1554510414.00,ACK
1309,1554515320.00,Data read: 00
1310,1554535322.00,NACK
1311,1554542128.00,Stop
1312,1560310948.00,Start
1313,1560313582.00,Address write: 40
1314,1560331068.00,Write
1315,1560359980.00,ACK
1316,1560365256.00,Data write: 00
1317,1560397668.00,ACK
1318,1560404822.00,Start repeat
1319,1560407418.00,Address read: 41
1320,1560424912.00,Read
1321,1560434482.00,ACK
1322,1560439356.00,Data read: 02
1323,1560459362.00,NACK
1324,1560466166.00,Stop
1325,1566178464.00,Start
1326,1566181098.00,Address write: 40
1327,1566198584.00,Write
1328,1566209652.00,ACK
1329,1566214950.00,Data write: 00
1330,1566247338.00,ACK
1331,1566254364.00,Start repeat
1332,1566256958.00,Address read: 41
1333,1566274454.00,Read
1334,1566284152.00,ACK
1335,1566289048.00,Data read: 02
1336,1566309054.00,NACK
1337,1566315858.00,Stop
1338,1572320876.00,Start
1339,1572323510.00,Address write: 40
1340,1572340996.00,Write
1341,1572369614.00,ACK
1342,1572374936.00,Data write: 00
1343,1572407300.00,ACK
1344,1572414326.00,Start repeat
1345,1572416920.00,Address read: 41
1346,1572434416.00,Read
1347,1572444112.00,ACK
1348,1572449060.00,Data read: 02
1349,1572469066.00,NACK
1350,1572475870.00,Stop
1351,1578557588.00,Start
1352,1578560222.00,Address write: 40
1353,1578577708.00,Write
1354,1578580622.00,ACK
1355,1578585902.00,Data write: 00
1356,1578607562.00,ACK
1357,1578614588.00,Start repeat
1358,1578617184.00,Address read: 41
1359,1578634678.00,Read
1360,1578638178.00,ACK
1361,1578643098.00,Data read: 03
1362,1578663104.00,NACK
1363,1578669914.00,Stop
1364,1579228928.00,Start
1365,1579231562.00,Address write: 40
1366,1579249046.00,Write
1367,1579251984.00,ACK
1368,1579257292.00,Data write: 06
1369,1579278928.00,ACK
1370,1579285952.00,Start repeat
1371,1579288548.00,Address read: 41
1372,1579306044.00,Read
1373,1579309748.00,ACK
1374,1579314664.00,Data read: 0B
1375,1579334672.00,ACK
1376,1579339890.00,Data read: 00
1377,1579359892.00,NACK
1378,1579366598.00,Stop
1379,1579975868.00,Start
1380,1579978500.00,Address write: 40
1381,1579995988.00,Write
1382,1579998938.00,ACK
1383,1580004230.00,Data write: 20
1384,1580026340.00,ACK
1385,1580033366.00,Start repeat
1386,1580035962.00,Address read: 41
1387,1580053458.00,Read
1388,1580057846.00,ACK
1389,1580062754.00,Data read: 6D
1390,1580082760.00,ACK
1391,1580088076.00,Data read: AC
1392,1580108086.00,ACK
1393,1580113230.00,Data read: 01
1394,1580133234.00,ACK
1395,1580138378.00,Data read: 22
1396,1580158384.00,ACK
1397,1580163480.00,Data read: 00
1398,1580183482.00,ACK
1399,1580188652.00,Data read: 00
1400,1580208658.00,ACK
1401,1580213778.00,Data read: 01
1402,1580233784.00,ACK
1403,1580238952.00,Data read: 00
1404,1580258958.00,ACK
1405,1580264078.00,Data read: 00
1406,1580284082.00,ACK
1407,1580289248.00,Data read: BD
1408,1580309258.00,ACK
1409,1580314378.00,Data read: 1F
1410,1580334380.00,NACK
1411,1580341092.00,Stop
1412,1581181950.00,Start
1413,1581184584.00,Address write: 40
1414,1581202070.00,Write
1415,1581205006.00,ACK
1416,1581210264.00,Data write: 02
1417,1581231924.00,ACK
1418,1581237062.00,Data write: 5A
1419,1581258764.00,ACK
1420,1581265244.00,Stop
1421,1582149012.00,Start
1422,1582151644.00,Address write: 40
1423,1582169130.00,Write
1424,1582172098.00,ACK
1425,1582177400.00,Data write: 00
1426,1582199044.00,ACK
1427,1582206010.00,Start repeat
1428,1582208606.00,Address read: 41
1429,1582226102.00,Read
1430,1582229570.00,ACK
1431,1582234448.00,Data read: 00
1432,1582254450.00,NACK
1433,1582261258.00,Stop
1434,1608260714.00,Start
1435,1608263348.00,Address write: 40
1436,1608280832.00,Write
1437,1608283774.00,ACK
1438,1608289052.00,Data write: 20
1439,1608311192.00,ACK
1440,1608316326.00,Data write: 6D
1441,1608338808.00,ACK
1442,1608343872.00,Data write: AC
1443,1608366378.00,ACK
1444,1608371474.00,Data write: 01
1445,1608393968.00,ACK
1446,1608398974.00,Data write: 22
1447,1608421476.00,ACK
1448,1608426524.00,Data write: 01
1449,1608449010.00,ACK
1450,1608454022.00,Data write: 00
1451,1608476538.00,ACK
1452,1608481572.00,Data write: 04
1453,1608504086.00,ACK
1454,1608509072.00,Data write: 02
1455,1608531552.00,ACK
1456,1608536572.00,Data write: 00
1457,1608559058.00,ACK
1458,1608564072.00,Data write: 22
1459,1608586564.00,ACK
1460,1608591622.00,Data write: 00
1461,1608614110.00,ACK
1462,1608619120.00,Data write: 00
1463,1608641638.00,ACK
1464,1608646670.00,Data write: 08
1465,1608669166.00,ACK
1466,1608674170.00,Data write: 40
1467,1608696674.00,ACK
1468,1608701720.00,Data write: 01
1469,1608724200.00,ACK
1470,1608729168.00,Data write: 21
1471,1608751666.00,ACK
1472,1608756716.00,Data write: 81
1473,1608779232.00,ACK
1474,1608784244.00,Data write: 40
1475,1608806742.00,ACK
1476,1608811764.00,Data write: 80
1477,1608834250.00,ACK
1478,1608839268.00,Data write: 20
1479,1608861756.00,ACK
1480,1608866818.00,Data write: 06
1481,1608889302.00,ACK
1482,1608894318.00,Data write: 4A
1483,1608916826.00,ACK
1484,1608921942.00,Data write: 11
1485,1608944432.00,ACK
1486,1608949466.00,Data write: 50
1487,1608971958.00,ACK
1488,1608977062.00,Data write: BF
1489,1608999570.00,ACK
1490,1609004562.00,Data write: F3
1491,1609027074.00,ACK
1492,1609032140.00,Data write: 4F
1493,1609054666.00,ACK
1494,1609059660.00,Data write: 8F
1495,1609082156.00,ACK
1496,1609087212.00,Data write: BF
1497,1609109706.00,ACK
1498,1609114712.00,Data write: F3
1499,1609137214.00,ACK
1500,1609142264.00,Data write: 6F
1501,1609164740.00,ACK
1502,1609169736.00,Data write: 8F
1503,1609192224.00,ACK
1504,1609197260.00,Data write: B0
1505,1609219770.00,ACK
1506,1609224760.00,Data write: BD
1507,1609247256.00,ACK
1508,1609252308.00,Data write: C0
1509,1609274846.00,ACK
1510,1609279862.00,Data write: 46
1511,1609302354.00,ACK
1512,1609307410.00,Data write: 1C
1513,1609329926.00,ACK
1514,1609334932.00,Data write: ED
1515,1609357452.00,ACK
1516,1609362510.00,Data write: 00
1517,1609385042.00,ACK
1518,1609390056.00,Data write: E0
1519,1609412546.00,ACK
1520,1609417606.00,Data write: 80
1521,1609440098.00,ACK
1522,1609445106.00,Data write: E2
1523,1609467626.00,ACK
1524,1609472658.00,Data write: 00
1525,1609495154.00,ACK
1526,1609500156.00,Data write: E0
1527,1609522660.00,ACK
1528,1609527708.00,Data write: 00
1529,1609550206.00,ACK
1530,1609555204.00,Data write: E4
1531,1609577712.00,ACK
1532,1609582756.00,Data write: 00
1533,1609605256.00,ACK
1534,1609610254.00,Data write: E0
1535,1609632764.00,ACK
1536,1609637832.00,Data write: 00
1537,1609660352.00,ACK
1538,1609665352.00,Data write: E1
1539,1609687836.00,ACK
1540,1609692856.00,Data write: 00
1541,1609715362.00,ACK
1542,1609720352.00,Data write: E0
1543,1609742870.00,ACK
1544,1609747926.00,Data write: 80
1545,1609770420.00,ACK
1546,1609775426.00,Data write: B5
1547,1609797930.00,ACK
1548,1609802954.00,Data write: 00
1549,1609825438.00,ACK
1550,1609830450.00,Data write: F0
1551,1609852970.00,ACK
1552,1609858028.00,Data write: 01
1553,1609880536.00,ACK
1554,1609885550.00,Data write: F8
1555,1609908068.00,ACK
1556,1609913124.00,Data write: 80
1557,1609935660.00,ACK
1558,1609940650.00,Data write: BD
1559,1609963132.00,ACK
1560,1609968152.00,Data write: 70
1561,1609990662.00,ACK
1562,1609995652.00,Data write: 47
1563,1610018134.00,ACK
1564,1610023200.00,Data write: 00
1565,1610045682.00,ACK
1566,1610050700.00,Data write: 00
1567,1610073236.00,ACK
1568,1610078296.00,Data write: FE
1569,1610100786.00,ACK
1570,1610105796.00,Data write: B5
1571,1610128296.00,ACK
1572,1610133348.00,Data write: 13
1573,1610155828.00,ACK
1574,1610160824.00,Data write: 46
1575,1610183338.00,ACK
1576,1610188398.00,Data write: 00
1577,1610210910.00,ACK
1578,1610215920.00,Data write: 90
1579,1610238440.00,ACK
1580,1610243498.00,Data write: 11
1581,1610266030.00,ACK
1582,1610271046.00,Data write: 4D
1583,1610293534.00,ACK
1584,1610298598.00,Data write: 11
1585,1610321086.00,ACK
1586,1610326096.00,Data write: 4A
1587,1610348598.00,ACK
1588,1610353646.00,Data write: 12
1589,1610376124.00,ACK
1590,1610381120.00,Data write: 4C
1591,1610403632.00,ACK
1592,1610408746.00,Data write: 17
1593,1610431224.00,ACK
1594,1610436216.00,Data write: E0
1595,1610458732.00,ACK
1596,1610463794.00,Data write: 01
1597,1610486302.00,ACK
1598,1610491316.00,Data write: 93
1599,1610513834.00,ACK
1600,1610518894.00,Data write: 02
1601,1610541426.00,ACK
1602,1610546440.00,Data write: 91
1603,1610568936.00,ACK
1604,1610573992.00,Data write: 00
1605,1610596470.00,ACK
1606,1610601440.00,Data write: 98
1607,1610623936.00,ACK
1608,1610628992.00,Data write: 43
1609,1610651484.00,ACK
1610,1610656492.00,Data write: 5C
1611,1610678992.00,ACK
1612,1610684040.00,Data write: 5D
1613,1610706536.00,ACK
1614,1610711540.00,Data write: 40
1615,1610734026.00,ACK
1616,1610739090.00,Data write: 00
1617,1610761574.00,ACK
1618,1610766590.00,Data write: 26
1619,1610789076.00,ACK
1620,1610794140.00,Data write: 09
1621,1610816644.00,ACK
1622,1610821636.00,Data write: E0
1623,1610844148.00,ACK
1624,1610849214.00,Data write: 6F
1625,1610871716.00,ACK
1626,1610876712.00,Data write: 08
1627,1610899222.00,ACK
1628,1610909236.00,Data write: 17
1629,1610931752.00,ACK
1630,1610936738.00,Data write: 40
1631,1610959242.00,ACK
1632,1610964286.00,Data write: 3B
1633,1610986770.00,ACK
1634,1610991786.00,Data write: 46
1635,1611014298.00,ACK
1636,1611019336.00,Data write: 63
1637,1611041846.00,ACK
1638,1611046836.00,Data write: 40
1639,1611069354.00,ACK
1640,1611074410.00,Data write: 01
1641,1611096944.00,ACK
1642,1611101936.00,Data write: 20
1643,1611124428.00,ACK
1644,1611129484.00,Data write: 05
1645,1611152000.00,ACK
1646,1611157010.00,Data write: 42
1647,1611179506.00,ACK
1648,1611184534.00,Data write: 00
1649,1611207014.00,ACK
1650,1611212006.00,Data write: D0
1651,1611234502.00,ACK
1652,1611239534.00,Data write: 1F
1653,1611262050.00,ACK
1654,1611267034.00,Data write: 46
1655,1611289512.00,ACK
1656,1611294532.00,Data write: 76
1657,1611317016.00,ACK
1658,1611322032.00,Data write: 1C
1659,1611344524.00,ACK
1660,1611349582.00,Data write: 3D
1661,1611372092.00,ACK
1662,1611377106.00,Data write: 46
1663,1611399618.00,ACK
1664,1611404704.00,Data write: F3
1665,1611427206.00,ACK
1666,1611432202.00,Data write: B2
1667,1611454692.00,ACK
1668,1611459730.00,Data write: 07
1669,1611482220.00,ACK
1670,1611487230.00,Data write: 2B
1671,1611509764.00,ACK
1672,1611514826.00,Data write: F2
1673,1611537314.00,ACK
1674,1611542326.00,Data write: D9
1675,1611564864.00,ACK
1676,1611569928.00,Data write: 01
1677,1611592410.00,ACK
1678,1611597426.00,Data write: 9B
1679,1611619916.00,ACK
1680,1611624978.00,Data write: 5B
1681,1611647462.00,ACK
1682,1611652478.00,Data write: 1E
1683,1611674990.00,ACK
1684,1611680028.00,Data write: 02
1685,1611702516.00,ACK
1686,1611707524.00,Data write: 99
1687,1611730062.00,ACK
1688,1611735126.00,Data write: 49
1689,1611757612.00,ACK
1690,1611762626.00,Data write: 1C
1691,1611785160.00,ACK
1692,1611790226.00,Data write: 00
1693,1611812708.00,ACK
1694,1611817726.00,Data write: 2B
1695,1611840214.00,ACK
1696,1611845272.00,Data write: E5
1697,1611867756.00,ACK
1698,1611872772.00,Data write: D1
1699,1611895286.00,ACK
1700,1611900322.00,Data write: 87
1701,1611922810.00,ACK
1702,1611927824.00,Data write: 48
1703,1611950360.00,ACK
1704,1611955496.00,Data write: A8
1705,1611978010.00,ACK
1706,1611983072.00,Data write: 43
1707,1612005580.00,ACK
1708,1612010672.00,Data write: 03
1709,1612033152.00,ACK
1710,1612038118.00,Data write: B0
1711,1612060620.00,ACK
1712,1612065670.00,Data write: F0
1713,1612088210.00,ACK
1714,1612093218.00,Data write: BD
1715,1612115716.00,ACK
1716,1612120768.00,Data write: C0
1717,1612143266.00,ACK
1718,1612148270.00,Data write: 46
1719,1612170750.00,ACK
1720,1612175792.00,Data write: 8C
1721,1612198276.00,ACK
1722,1612203292.00,Data write: A2
1723,1612225824.00,ACK
1724,1612230870.00,Data write: 00
1725,1612253352.00,ACK
1726,1612258368.00,Data write: 00
1727,1612280858.00,ACK
1728,1612285916.00,Data write: FF
1729,1612308408.00,ACK
1730,1612313418.00,Data write: 7F
1731,1612335916.00,ACK
1732,1612340968.00,Data write: 00
1733,1612363466.00,ACK
1734,1612368466.00,Data write: 00
1735,1612390972.00,ACK
1736,1612396016.00,Data write: 08
1737,1612418518.00,ACK
1738,1612423514.00,Data write: 84
1739,1612446004.00,ACK
1740,1612451064.00,Data write: FF
1741,1612473554.00,ACK
1742,1612478562.00,Data write: FF
1743,1612501082.00,ACK
1744,1612506116.00,Data write: 02
1745,1612528612.00,ACK
1746,1612533614.00,Data write: 48
1747,1612556120.00,ACK
1748,1612561164.00,Data write: 01
1749,1612583648.00,ACK
1750,1612588664.00,Data write: 68
1751,1612611180.00,ACK
1752,1612616214.00,Data write: 01
1753,1612638728.00,ACK
1754,1612643714.00,Data write: 22
1755,1612666194.00,ACK
1756,1612671210.00,Data write: 91
1757,1612693702.00,ACK
1758,1612698712.00,Data write: 43
1759,1612721210.00,ACK
1760,1612726262.00,Data write: 01
1761,1612748740.00,ACK
1762,1612753712.00,Data write: 60
1763,1612776208.00,ACK
1764,1612781262.00,Data write: 70
1765,1612803758.00,ACK
1766,1612808760.00,Data write: 47
1767,1612831268.00,ACK
1768,1612836310.00,Data write: 1C
1769,1612858794.00,ACK
1770,1612863810.00,Data write: 18
1771,1612886318.00,ACK
1772,1612891384.00,Data write: 00
1773,1612913886.00,ACK
1774,1612918884.00,Data write: 40
1775,1612941398.00,ACK
1776,1612946460.00,Data write: 05
1777,1612968988.00,ACK
1778,1612974008.00,Data write: 48
1779,1612996500.00,ACK
1780,1613001558.00,Data write: 01
1781,1613024050.00,ACK
1782,1613029058.00,Data write: 68
1783,1613051562.00,ACK
1784,1613056608.00,Data write: 14
1785,1613079094.00,ACK
1786,1613084106.00,Data write: 22
1787,1613106606.00,ACK
1788,1613111654.00,Data write: 91
1789,1613134136.00,ACK
1790,1613139106.00,Data write: 43
1791,1613161588.00,ACK
1792,1613166656.00,Data write: 01
1793,1613189140.00,ACK
1794,1613194156.00,Data write: 60
1795,1613216690.00,ACK
1796,1613221756.00,Data write: 70
1797,1613244244.00,ACK
1798,1613249254.00,Data write: 47
1799,1613271736.00,ACK
1800,1613276804.00,Data write: 02
1801,1613299288.00,ACK
1802,1613304304.00,Data write: 48
1803,1613326796.00,ACK
1804,1613331852.00,Data write: 01
1805,1613354368.00,ACK
1806,1613359378.00,Data write: 68
1807,1613381882.00,ACK
1808,1613386902.00,Data write: 01
1809,1613409410.00,ACK
1810,1613414402.00,Data write: 22
1811,1613436918.00,ACK
1812,1613441974.00,Data write: 91
1813,1613464468.00,ACK
1814,1613469476.00,Data write: 43
1815,1613491996.00,ACK
1816,1613497050.00,Data write: 01
1817,1613519564.00,ACK
1818,1613524576.00,Data write: 60
1819,1613547094.00,ACK
1820,1613552150.00,Data write: 70
1821,1613574648.00,ACK
1822,1613579650.00,Data write: 47
1823,1613602138.00,ACK
1824,1613607200.00,Data write: 14
1825,1613629686.00,ACK
1826,1613634696.00,Data write: 80
1827,1613657218.00,ACK
1828,1613662274.00,Data write: 00
1829,1613684762.00,ACK
1830,1613689774.00,Data write: 40
1831,1613712310.00,ACK
1832,1613717370.00,Data write: FC
1833,1613739862.00,ACK
1834,1613744870.00,Data write: B5
1835,1613767368.00,ACK
1836,1613772398.00,Data write: 76
1837,1613794878.00,ACK
1838,1613799872.00,Data write: 49
1839,1613822386.00,ACK
1840,1613827446.00,Data write: 01
1841,1613849956.00,ACK
1842,1613854968.00,Data write: 91
1843,1613877486.00,ACK
1844,1613882542.00,Data write: D7
1845,1613905036.00,ACK
1846,1613910570.00,Data write: 4A
1847,1613933068.00,ACK
1848,1613938168.00,Data write: D7
1849,1613960658.00,ACK
1850,1613965694.00,Data write: 4B
1851,1613988206.00,ACK
1852,1613993290.00,Data write: D3
1853,1614015800.00,ACK
1854,1614020794.00,Data write: 60
1855,1614043312.00,ACK
1856,1614048340.00,Data write: D7
1857,1614070840.00,ACK
1858,1614075792.00,Data write: 4C
1859,1614098306.00,ACK
1860,1614103340.00,Data write: D4
1861,1614125854.00,ACK
1862,1614130842.00,Data write: 60
1863,1614153360.00,ACK
1864,1614158392.00,Data write: 01
1865,1614180886.00,ACK
1866,1614185866.00,Data write: 21
1867,1614208348.00,ACK
1868,1614213388.00,Data write: CD
1869,1614235898.00,ACK
1870,1614240890.00,Data write: 02
1871,1614263410.00,ACK
1872,1614268440.00,Data write: 11
1873,1614290918.00,ACK
1874,1614295890.00,Data write: 68
1875,1614318406.00,ACK
1876,1614323436.00,Data write: A9
1877,1614345936.00,ACK
1878,1614350888.00,Data write: 43
1879,1614373396.00,ACK
1880,1614378438.00,Data write: 11
1881,1614400924.00,ACK
1882,1614405888.00,Data write: 60
1883,1614428372.00,ACK
1884,1614433384.00,Data write: D3
1885,1614455898.00,ACK
1886,1614460888.00,Data write: 60
1887,1614483404.00,ACK
1888,1614488434.00,Data write: D4
1889,1614510950.00,ACK
1890,1614515936.00,Data write: 60
1891,1614538454.00,ACK
1892,1614543486.00,Data write: 00
1893,1614565964.00,ACK
1894,1614570936.00,Data write: 21
1895,1614593452.00,ACK
1896,1614598482.00,Data write: C9
1897,1614620980.00,ACK
1898,1614625960.00,Data write: 43
1899,1614648442.00,ACK
1900,1614653484.00,Data write: 11
1901,1614675966.00,ACK
1902,1614680958.00,Data write: 61
1903,1614703474.00,ACK
1904,1614708484.00,Data write: 04
1905,1614730980.00,ACK
1906,1614735958.00,Data write: 21
1907,1614758448.00,ACK
1908,1614763482.00,Data write: 06
1909,1614785998.00,ACK
1910,1614790984.00,Data write: 0C
1911,1614813462.00,ACK
1912,1614818482.00,Data write: 48
1913,1614840970.00,ACK
1914,1614845954.00,Data write: D1
1915,1614868452.00,ACK
1916,1614873482.00,Data write: 6C
1917,1614895980.00,ACK
1918,1614900956.00,Data write: 49
1919,1614923448.00,ACK
1920,1614928530.00,Data write: 01
1921,1614951036.00,ACK
1922,1614956078.00,Data write: 91
1923,1614978566.00,ACK
1924,1614983680.00,Data write: 11
1925,1615006194.00,ACK
1926,1615011180.00,Data write: 68
1927,1615033662.00,ACK
1928,1615038680.00,Data write: 03
1929,1615061174.00,ACK
1930,1615066154.00,Data write: 27
1931,1615088664.00,ACK
1932,1615093678.00,Data write: 39
1933,1615116192.00,ACK
1934,1615121178.00,Data write: 40
1935,1615143660.00,ACK
1936,1615148676.00,Data write: 02
1937,1615171170.00,ACK
1938,1615176152.00,Data write: 29
1939,1615198654.00,ACK
1940,1615203676.00,Data write: 0D
1941,1615226164.00,ACK
1942,1615231148.00,Data write: D0
1943,1615253652.00,ACK
1944,1615258674.00,Data write: D3
1945,1615281160.00,ACK
1946,1615286150.00,Data write: 60
1947,1615308668.00,ACK
1948,1615313672.00,Data write: D4
1949,1615336214.00,ACK
1950,1615341174.00,Data write: 60
1951,1615363680.00,ACK
1952,1615368674.00,Data write: 11
1953,1615391186.00,ACK
1954,1615396174.00,Data write: 68
1955,1615418676.00,ACK
1956,1615423670.00,Data write: B9
1957,1615446180.00,ACK
1958,1615451172.00,Data write: 43
1959,1615473690.00,ACK
1960,1615478722.00,Data write: 02
1961,1615501220.00,ACK
1962,1615506248.00,Data write: 26
1963,1615528730.00,ACK
1964,1615533772.00,Data write: 0E
1965,1615556260.00,ACK
1966,1615561272.00,Data write: 43
1967,1615583790.00,ACK
1968,1615588822.00,Data write: 16
1969,1615611342.00,ACK
1970,1615616370.00,Data write: 60
1971,1615638868.00,ACK
1972,1615643870.00,Data write: 01
1973,1615666374.00,ACK
1974,1615671368.00,Data write: 9E
1975,1615693862.00,ACK
1976,1615698870.00,Data write: 71
1977,1615721370.00,ACK
1978,1615726368.00,Data write: 1E
1979,1615748878.00,ACK
1980,1615753920.00,Data write: 01
1981,1615776400.00,ACK
1982,1615781440.00,Data write: 91
1983,1615803948.00,ACK
1984,1615808968.00,Data write: 09
1985,1615831454.00,ACK
1986,1615836468.00,Data write: 21
1987,1615858980.00,ACK
1988,1615864018.00,Data write: 00
1989,1615886526.00,ACK
1990,1615891568.00,Data write: 2E
1991,1615914056.00,ACK
1992,1615919064.00,Data write: ED
1993,1615941560.00,ACK
1994,1615946562.00,Data write: D1
1995,1615969048.00,ACK
1996,1615974066.00,Data write: 33
1997,1615996574.00,ACK
1998,1616001562.00,Data write: E0
1999,1616024082.00,ACK
2000,1616029114.00,Data write: 61
2001,1616051610.00,ACK
2002,1616056640.00,Data write: 49
2003,1616079154.00,ACK
2004,1616084164.00,Data write: 01
2005,1616106640.00,ACK
2006,1616111660.00,Data write: 91
2007,1616134168.00,ACK
2008,1616139164.00,Data write: 11
2009,1616161656.00,ACK
2010,1616166664.00,Data write: 68
2011,1616189162.00,ACK
2012,1616194162.00,Data write: 10
2013,1616216646.00,ACK
2014,1616221662.00,Data write: 26
2015,1616244150.00,ACK
2016,1616249162.00,Data write: 31
2017,1616271640.00,ACK
2018,1616276660.00,Data write: 42
2019,1616299146.00,ACK
2020,1616304160.00,Data write: 06
2021,1616326656.00,ACK
2022,1616331658.00,Data write: D0
2023,1616354144.00,ACK
2024,1616359160.00,Data write: 01
2025,1616381650.00,ACK
2026,1616386656.00,Data write: 9E
2027,1616409138.00,ACK
2028,1616414160.00,Data write: 71
2029,1616436644.00,ACK
2030,1616441660.00,Data write: 1E
2031,1616464150.00,ACK
2032,1616469158.00,Data write: 01
2033,1616491634.00,ACK
2034,1616496630.00,Data write: 91
2035,1616519122.00,ACK
2036,1616524132.00,Data write: 09
2037,1616546628.00,ACK
2038,1616551632.00,Data write: 21
2039,1616574132.00,ACK
2040,1616579132.00,Data write: 00
2041,1616601636.00,ACK
2042,1616606632.00,Data write: 2E
2043,1616629122.00,ACK
2044,1616634130.00,Data write: F5
2045,1616656610.00,ACK
2046,1616661602.00,Data write: D1
2047,1616684098.00,ACK
2048,1616689104.00,Data write: 26
2049,1616711606.00,ACK
2050,1616716602.00,Data write: E0
2051,1616739112.00,ACK
2052,1616744130.00,Data write: 00
2053,1616766638.00,ACK
2054,1616771654.00,Data write: 21
2055,1616794144.00,ACK
2056,1616799154.00,Data write: 00
2057,1616821632.00,ACK
2058,1616826626.00,Data write: 91
2059,1616849138.00,ACK
2060,1616854154.00,Data write: 01
2061,1616876646.00,ACK
2062,1616881652.00,Data write: 60
2063,1616904172.00,ACK
2064,1616909252.00,Data write: 59
2065,1616931736.00,ACK
2066,1616936802.00,Data write: 48
2067,1616959326.00,ACK
2068,1616964402.00,Data write: 01
2069,1616986914.00,ACK
2070,1616991948.00,Data write: 90
2071,1617014466.00,ACK
2072,1617019500.00,Data write: 10
2073,1617042014.00,ACK
2074,1617047026.00,Data write: 68
2075,1617069518.00,ACK
2076,1617074524.00,Data write: 30
2077,1617097026.00,ACK
2078,1617102024.00,Data write: 42
2079,1617124532.00,ACK
2080,1617129550.00,Data write: 06
2081,1617152080.00,ACK
2082,1617157046.00,Data write: D0
2083,1617179546.00,ACK
2084,1617184548.00,Data write: 01
2085,1617207054.00,ACK
2086,1617212046.00,Data write: 98
2087,1617234562.00,ACK
2088,1617239548.00,Data write: 41
2089,1617262024.00,ACK
2090,1617267022.00,Data write: 1E
2091,1617289536.00,ACK
2092,1617294546.00,Data write: 01
2093,1617317040.00,ACK
2094,1617322044.00,Data write: 91
2095,1617344548.00,ACK
2096,1617349546.00,Data write: 09
2097,1617372054.00,ACK
2098,1617377046.00,Data write: 21
2099,1617399560.00,ACK
2100,1617404596.00,Data write: 00
2101,1617427108.00,ACK
2102,1617432120.00,Data write: 28
2103,1617454616.00,ACK
2104,1617459642.00,Data write: F6
2105,1617482140.00,ACK
2106,1617487142.00,Data write: D1
2107,1617509644.00,ACK
2108,1617514644.00,Data write: 17
2109,1617537150.00,ACK
2110,1617542140.00,Data write: E0
2111,1617564662.00,ACK
2112,1617569692.00,Data write: 53
2113,1617592188.00,ACK
2114,1617597218.00,Data write: 48
2115,1617619714.00,ACK
2116,1617624742.00,Data write: 01
2117,1617647264.00,ACK
2118,1617652238.00,Data write: 90
2119,1617674730.00,ACK
2120,1617679742.00,Data write: 10
2121,1617702242.00,ACK
2122,1617707240.00,Data write: 68
2123,1617729730.00,ACK
2124,1617734738.00,Data write: D3
2125,1617757256.00,ACK
2126,1617762240.00,Data write: 60
2127,1617784722.00,ACK
2128,1617789736.00,Data write: D4
2129,1617812248.00,ACK
2130,1617817240.00,Data write: 60
2131,1617839756.00,ACK
2132,1617844790.00,Data write: 38
2133,1617867284.00,ACK
2134,1617872314.00,Data write: 42
2135,1617894816.00,ACK
2136,1617899838.00,Data write: 09
2137,1617922360.00,ACK
2138,1617927410.00,Data write: D0
2139,1617949892.00,ACK
2140,1617954988.00,Data write: 10
2141,1617977504.00,ACK
2142,1617982586.00,Data write: 68
2143,1618005092.00,ACK
2144,1618010134.00,Data write: B8
2145,1618032620.00,ACK
2146,1618037636.00,Data write: 43
2147,1618060122.00,ACK
2148,1618065136.00,Data write: 10
2149,1618087626.00,ACK
2150,1618092636.00,Data write: 60
2151,1618115154.00,ACK
2152,1618120186.00,Data write: 01
2153,1618142700.00,ACK
2154,1618147732.00,Data write: 98
2155,1618170228.00,ACK
2156,1618175234.00,Data write: 41
2157,1618197716.00,ACK
2158,1618202734.00,Data write: 1E
2159,1618225226.00,ACK
2160,1618230234.00,Data write: 01
2161,1618252730.00,ACK
2162,1618257730.00,Data write: 91
2163,1618280218.00,ACK
2164,1618285232.00,Data write: 09
2165,1618307728.00,ACK
2166,1618312732.00,Data write: 21
2167,1618335210.00,ACK
2168,1618340232.00,Data write: 00
2169,1618362716.00,ACK
2170,1618367732.00,Data write: 28
2171,1618390224.00,ACK
2172,1618395228.00,Data write: F1
2173,1618417708.00,ACK
2174,1618422728.00,Data write: D1
2175,1618445216.00,ACK
2176,1618450230.00,Data write: 06
2177,1618472724.00,ACK
2178,1618477728.00,Data write: E0
2179,1618500234.00,ACK
2180,1618505230.00,Data write: 00
2181,1618527738.00,ACK
2182,1618532726.00,Data write: 99
2183,1618555222.00,ACK
2184,1618560228.00,Data write: 11
2185,1618582710.00,ACK
2186,1618587728.00,Data write: 61
2187,1618610220.00,ACK
2188,1618615224.00,Data write: D3
2189,1618637726.00,ACK
2190,1618642728.00,Data write: 60
2191,1618665232.00,ACK
2192,1618670224.00,Data write: D4
2193,1618692714.00,ACK
2194,1618697726.00,Data write: 60
2195,1618720222.00,ACK
2196,1618725226.00,Data write: 10
2197,1618747712.00,ACK
2198,1618752726.00,Data write: 68
2199,1618775218.00,ACK
2200,1618780226.00,Data write: 28
2201,1618802724.00,ACK
2202,1618807726.00,Data write: 43
2203,1618830206.00,ACK
2204,1618835224.00,Data write: 10
2205,1618857716.00,ACK
2206,1618862724.00,Data write: 60
2207,1618885206.00,ACK
2208,1618890224.00,Data write: 08
2209,1618912710.00,ACK
2210,1618917724.00,Data write: 46
2211,1618940216.00,ACK
2212,1618945222.00,Data write: 02
2213,1618967704.00,ACK
2214,1618972720.00,Data write: B0
2215,1618995210.00,ACK
2216,1619000220.00,Data write: F0
2217,1619022718.00,ACK
2218,1619027720.00,Data write: BD
2219,1619050226.00,ACK
2220,1619055218.00,Data write: C0
2221,1619077734.00,ACK
2222,1619082772.00,Data write: 46
2223,1619105300.00,ACK
2224,1619110322.00,Data write: 04
2225,1619132824.00,ACK
2226,1619137818.00,Data write: E0
2227,1619160312.00,ACK
2228,1619165320.00,Data write: 03
2229,1619187838.00,ACK
2230,1619192870.00,Data write: 78
2231,1619215388.00,ACK
2232,1619220420.00,Data write: 0B
2233,1619242918.00,ACK
2234,1619247918.00,Data write: 70
2235,1619270424.00,ACK
2236,1619275470.00,Data write: 49
2237,1619297952.00,ACK
2238,1619302992.00,Data write: 1C
2239,1619325484.00,ACK
2240,1619330518.00,Data write: 40
2241,1619353036.00,ACK
2242,1619358066.00,Data write: 1C
2243,1619380564.00,ACK
2244,1619385616.00,Data write: 52
2245,1619408154.00,ACK
2246,1619413192.00,Data write: 1E
2247,1619435680.00,ACK
2248,1619440716.00,Data write: 00
2249,1619463202.00,ACK
2250,1619468216.00,Data write: 2A
2251,1619490754.00,ACK
2252,1619495812.00,Data write: F8
2253,1619518300.00,ACK
2254,1619523312.00,Data write: D1
2255,1619545846.00,ACK
2256,1619550914.00,Data write: 70
2257,1619573394.00,ACK
2258,1619578414.00,Data write: 47
2259,1619600900.00,ACK
2260,1619605914.00,Data write: 00
2261,1619628406.00,ACK
2262,1619633414.00,Data write: 00
2263,1619655912.00,ACK
2264,1619660910.00,Data write: F0
2265,1619683422.00,ACK
2266,1619688460.00,Data write: B5
2267,1619710990.00,ACK
2268,1619716010.00,Data write: 85
2269,1619738522.00,ACK
2270,1619743560.00,Data write: B0
2271,1619766076.00,ACK
2272,1619771112.00,Data write: 03
2273,1619793602.00,ACK
2274,1619798608.00,Data write: 91
2275,1619821110.00,ACK
2276,1619826110.00,Data write: 3F
2277,1619848622.00,ACK
2278,1619853660.00,Data write: 49
2279,1619876148.00,ACK
2280,1619881210.00,Data write: 04
2281,1619903748.00,ACK
2282,1619908982.00,Data write: 91
2283,1619931502.00,ACK
2284,1619936506.00,Data write: A0
2285,1619959010.00,ACK
2286,1619964008.00,Data write: 4C
2287,1619986522.00,ACK
2288,1619991556.00,Data write: A0
2289,1620014052.00,ACK
2290,1620019082.00,Data write: 4F
2291,1620041578.00,ACK
2292,1620046604.00,Data write: E7
2293,1620069128.00,ACK
2294,1620074156.00,Data write: 60
2295,1620096656.00,ACK
2296,1620101704.00,Data write: A0
2297,1620124244.00,ACK
2298,1620129282.00,Data write: 4E
2299,1620151776.00,ACK
2300,1620156804.00,Data write: E6
2301,1620179324.00,ACK
2302,1620184356.00,Data write: 60
2303,1620206832.00,ACK
2304,1620211856.00,Data write: 01
2305,1620234358.00,ACK
2306,1620239380.00,Data write: 21
2307,1620261902.00,ACK
2308,1620266902.00,Data write: CD
2309,1620289406.00,ACK
2310,1620294404.00,Data write: 02
2311,1620316916.00,ACK
2312,1620321954.00,Data write: 23
2313,1620344444.00,ACK
2314,1620349478.00,Data write: 68
2315,1620371970.00,ACK
2316,1620377002.00,Data write: 01
2317,1620399514.00,ACK
2318,1620404574.00,Data write: 95
2319,1620427064.00,ACK
2320,1620432100.00,Data write: AB
2321,1620454612.00,ACK
2322,1620459652.00,Data write: 43
2323,1620482140.00,ACK
2324,1620487202.00,Data write: 23
2325,1620509688.00,ACK
2326,1620514700.00,Data write: 60
2327,1620537220.00,ACK
2328,1620542248.00,Data write: E7
2329,1620564754.00,ACK
2330,1620569776.00,Data write: 60
2331,1620592266.00,ACK
2332,1620597298.00,Data write: E6
2333,1620619794.00,ACK
2334,1620624800.00,Data write: 60
2335,1620647302.00,ACK
2336,1620652298.00,Data write: 00
2337,1620674814.00,ACK
2338,1620679848.00,Data write: 23
2339,1620702342.00,ACK
2340,1620707396.00,Data write: DB
2341,1620729938.00,ACK
2342,1620734972.00,Data write: 43
2343,1620757466.00,ACK
2344,1620762498.00,Data write: 23
2345,1620784988.00,ACK
2346,1620789996.00,Data write: 61
2347,1620812534.00,ACK
2348,1620817596.00,Data write: 02
2349,1620840084.00,ACK
2350,1620845092.00,Data write: 92
2351,1620867630.00,ACK
2352,1620872694.00,Data write: 83
2353,1620895180.00,ACK
2354,1620900196.00,Data write: 18
2355,1620922684.00,ACK
2356,1620927696.00,Data write: 5D
2357,1620950172.00,ACK
2358,1620955194.00,Data write: 1E
2359,1620977678.00,ACK
2360,1620982694.00,Data write: 04
2361,1621005182.00,ACK
2362,1621010194.00,Data write: 23
2363,1621032708.00,ACK
2364,1621037744.00,Data write: 2D
2365,1621060256.00,ACK
2366,1621065294.00,Data write: 0C
2367,1621087806.00,ACK
2368,1621092842.00,Data write: 62
2369,1621115336.00,ACK
2370,1621120364.00,Data write: D1
2371,1621142864.00,ACK
2372,1621147892.00,Data write: 33
2373,1621170396.00,ACK
2374,1621175390.00,Data write: 4A
2375,1621197882.00,ACK
2376,1621202890.00,Data write: 04
2377,1621225368.00,ACK
2378,1621230388.00,Data write: 92
2379,1621252876.00,ACK
2380,1621257888.00,Data write: 95
2381,1621280384.00,ACK
2382,1621285390.00,Data write: 4A
2383,1621307870.00,ACK
2384,1621312888.00,Data write: 23
2385,1621335372.00,ACK
2386,1621340390.00,Data write: 68
2387,1621362874.00,ACK
2388,1621367888.00,Data write: 03
2389,1621390378.00,ACK
2390,1621395388.00,Data write: 27
2391,1621417884.00,ACK
2392,1621422888.00,Data write: 3B
2393,1621445368.00,ACK
2394,1621450388.00,Data write: 40
2395,1621472874.00,ACK
2396,1621477888.00,Data write: 01
2397,1621500374.00,ACK
2398,1621505386.00,Data write: 2B
2399,1621527880.00,ACK
2400,1621532886.00,Data write: 0C
2401,1621555388.00,ACK
2402,1621560384.00,Data write: D0
2403,1621582876.00,ACK
2404,1621587882.00,Data write: E2
2405,1621610380.00,ACK
2406,1621615386.00,Data write: 60
2407,1621637868.00,ACK
2408,1621642882.00,Data write: E6
2409,1621665372.00,ACK
2410,1621670384.00,Data write: 60
2411,1621692878.00,ACK
2412,1621697884.00,Data write: 23
2413,1621720368.00,ACK
2414,1621725384.00,Data write: 68
2415,1621747874.00,ACK
2416,1621752880.00,Data write: BB
2417,1621775362.00,ACK
2418,1621780382.00,Data write: 43
2419,1621802864.00,ACK
2420,1621807882.00,Data write: 0B
2421,1621830372.00,ACK
2422,1621835382.00,Data write: 43
2423,1621857898.00,ACK
2424,1621862930.00,Data write: 23
2425,1621885444.00,ACK
2426,1621890480.00,Data write: 60
2427,1621912992.00,ACK
2428,1621918030.00,Data write: 04
2429,1621940514.00,ACK
2430,1621945552.00,Data write: 9D
2431,1621968042.00,ACK
2432,1621973080.00,Data write: 6B
2433,1621995586.00,ACK
2434,1622000630.00,Data write: 1E
2435,1622023114.00,ACK
2436,1622028180.00,Data write: 04
2437,1622050698.00,ACK
2438,1622055726.00,Data write: 93
2439,1622078208.00,ACK
2440,1622083228.00,Data write: 09
2441,1622105738.00,ACK
2442,1622110778.00,Data write: 23
2443,1622133288.00,ACK
2444,1622138326.00,Data write: 00
2445,1622160814.00,ACK
2446,1622165852.00,Data write: 2D
2447,1622188384.00,ACK
2448,1622193424.00,Data write: EE
2449,1622215910.00,ACK
2450,1622220950.00,Data write: D1
2451,1622243458.00,ACK
2452,1622248476.00,Data write: 4D
2453,1622270966.00,ACK
2454,1622275972.00,Data write: E0
2455,1622298478.00,ACK
2456,1622303476.00,Data write: 28
2457,1622325982.00,ACK
2458,1622331026.00,Data write: 4A
2459,1622353514.00,ACK
2460,1622358574.00,Data write: 04
2461,1622381102.00,ACK
2462,1622386122.00,Data write: 92
2463,1622408612.00,ACK
2464,1622413674.00,Data write: 23
2465,1622436160.00,ACK
2466,1622441172.00,Data write: 68
2467,1622463686.00,ACK
2468,1622468722.00,Data write: 10
2469,1622491212.00,ACK
2470,1622496248.00,Data write: 25
2471,1622518762.00,ACK
2472,1622523772.00,Data write: 2B
2473,1622546268.00,ACK
2474,1622551272.00,Data write: 42
2475,1622573774.00,ACK
2476,1622578770.00,Data write: 06
2477,1622601282.00,ACK
2478,1622606318.00,Data write: D0
2479,1622628810.00,ACK
2480,1622633870.00,Data write: 04
2481,1622656398.00,ACK
2482,1622661418.00,Data write: 9D
2483,1622683902.00,ACK
2484,1622688970.00,Data write: 6B
2485,1622711450.00,ACK
2486,1622716470.00,Data write: 1E
2487,1622738978.00,ACK
2488,1622744016.00,Data write: F6
2489,1622766506.00,ACK
2490,1622771544.00,Data write: 49
2491,1622794052.00,ACK
2492,1622800522.00,Stop
2493,1624920026.00,Start
2494,1624922660.00,Address write: 40
2495,1624940144.00,Write
2496,1624943064.00,ACK
2497,1624948338.00,Data write: 02
2498,1624969962.00,ACK
2499,1624975034.00,Data write: A5
2500,1624996928.00,ACK
2501,1625003440.00,Stop
2502,1625725014.00,Start
2503,1625727648.00,Address write: 40
2504,1625745134.00,Write
2505,1625748068.00,ACK
2506,1625753302.00,Data write: 00
2507,1625774944.00,ACK
2508,1625781914.00,Start repeat
2509,1625784510.00,Address read: 41
2510,1625802004.00,Read
2511,1625805490.00,ACK
2512,1625810326.00,Data read: 00
2513,1625830328.00,NACK
2514,1625837110.00,Stop
2515,1631818726.00,Start
2516,1631821360.00,Address write: 40
2517,1631838846.00,Write
2518,1631848516.00,ACK
2519,1631853786.00,Data write: 00
2520,1631886202.00,ACK
2521,1631893200.00,Start repeat
2522,1631895796.00,Address read: 41
2523,1631913292.00,Read
2524,1631923018.00,ACK
2525,1631927936.00,Data read: 02
2526,1631947940.00,NACK
2527,1631954720.00,Stop
2528,1637618594.00,Start
2529,1637621228.00,Address write: 40
2530,1637638712.00,Write
2531,1637663790.00,ACK
2532,1637669052.00,Data write: 00
2533,1637701476.00,ACK
2534,1637708442.00,Start repeat
2535,1637711038.00,Address read: 41
2536,1637728534.00,Read
2537,1637738290.00,ACK
2538,1637743202.00,Data read: 02
2539,1637763208.00,NACK
2540,1637769960.00,Stop
2541,1643828754.00,Start
2542,1643831390.00,Address write: 40
2543,1643848874.00,Write
2544,1643858180.00,ACK
2545,1643863466.00,Data write: 00
2546,1643895862.00,ACK
2547,1643902854.00,Start repeat
2548,1643905448.00,Address read: 41
2549,1643922944.00,Read
2550,1643932674.00,ACK
2551,1643937564.00,Data read: 02
2552,1643957570.00,NACK
2553,1643964348.00,Stop
2554,1649597972.00,Start
2555,1649600606.00,Address write: 40
2556,1649618092.00,Write
2557,1649621014.00,ACK
2558,1649626286.00,Data write: 00
2559,1649647912.00,ACK
2560,1649654872.00,Start repeat
2561,1649657468.00,Address read: 41
2562,1649674962.00,Read
2563,1649678440.00,ACK
2564,1649683334.00,Data read: 03
2565,1649703338.00,NACK
2566,1649710174.00,Stop
2567,1650305862.00,Start
2568,1650308498.00,Address write: 40
2569,1650325982.00,Write
2570,1650328928.00,ACK
2571,1650334176.00,Data write: 06
2572,1650355812.00,ACK
2573,1650362762.00,Start repeat
2574,1650365358.00,Address read: 41
2575,1650382852.00,Read
2576,1650386574.00,ACK
2577,1650391424.00,Data read: 0B
2578,1650411430.00,ACK
2579,1650416724.00,Data read: 00
2580,1650436726.00,NACK
2581,1650443458.00,Stop
2582,1651143950.00,Start
2583,1651146584.00,Address write: 40
2584,1651164070.00,Write
2585,1651167010.00,ACK
2586,1651172264.00,Data write: 20
2587,1651194390.00,ACK
2588,1651201350.00,Start repeat
2589,1651203946.00,Address read: 41
2590,1651221440.00,Read
2591,1651225834.00,ACK
2592,1651230736.00,Data read: 6D
2593,1651250744.00,ACK
2594,1651255960.00,Data read: AC
2595,1651275968.00,ACK
2596,1651281062.00,Data read: 01
2597,1651301068.00,ACK
2598,1651306238.00,Data read: 22
2599,1651326242.00,ACK
2600,1651331362.00,Data read: 01
2601,1651351366.00,ACK
2602,1651356536.00,Data read: 00
2603,1651376540.00,ACK
2604,1651381660.00,Data read: 01
2605,1651401666.00,ACK
2606,1651406836.00,Data read: 00
2607,1651426840.00,ACK
2608,1651431960.00,Data read: 00
2609,1651451964.00,ACK
2610,1651457132.00,Data read: F9
2611,1651477140.00,ACK
2612,1651482260.00,Data read: 14
2613,1651502262.00,NACK
2614,1651508966.00,Stop
2615,1652418632.00,Start
2616,1652421266.00,Address write: 40
2617,1652438752.00,Write
2618,1652441692.00,ACK
2619,1652447020.00,Data write: 02
2620,1652468658.00,ACK
2621,1652473744.00,Data write: 5A
2622,1652495436.00,ACK
2623,1652501952.00,Stop
2624,1653434118.00,Start
2625,1653436752.00,Address write: 40
2626,1653454236.00,Write
2627,1653457192.00,ACK
2628,1653462482.00,Data write: 00
2629,1653484132.00,ACK
2630,1653491092.00,Start repeat
2631,1653493688.00,Address read: 41
2632,1653511182.00,Read
2633,1653514664.00,ACK
2634,1653519530.00,Data read: 00
2635,1653539532.00,NACK
2636,1653546340.00,Stop
2637,1679546794.00,Start
2638,1679549428.00,Address write: 40
2639,1679566914.00,Write
2640,1679569828.00,ACK
2641,1679575058.00,Data write: 20
2642,1679597188.00,ACK
2643,1679602256.00,Data write: 6D
2644,1679624736.00,ACK
2645,1679629754.00,Data write: AC
2646,1679652264.00,ACK
2647,1679657356.00,Data write: 01
2648,1679679872.00,ACK
2649,1679684856.00,Data write: 22
2650,1679707356.00,ACK
2651,1679712354.00,Data write: 02
2652,1679734842.00,ACK
2653,1679739830.00,Data write: 00
2654,1679762306.00,ACK
2655,1679767354.00,Data write: 04
2656,1679789872.00,ACK
2657,1679794854.00,Data write: 02
2658,1679817336.00,ACK
2659,1679822352.00,Data write: 00
2660,1679844844.00,ACK
2661,1679849828.00,Data write: 24
2662,1679872330.00,ACK
2663,1679877352.00,Data write: 00
2664,1679899856.00,ACK
2665,1679908398.00,Data write: 00
2666,1679930916.00,ACK
2667,1679936026.00,Data write: 04
2668,1679958522.00,ACK
2669,1679963548.00,Data write: 93
2670,1679986070.00,ACK
2671,1679991126.00,Data write: 09
2672,1680013620.00,ACK
2673,1680018600.00,Data write: 23
2674,1680041084.00,ACK
2675,1680046150.00,Data write: 00
2676,1680068630.00,ACK
2677,1680073600.00,Data write: 2D
2678,1680096096.00,ACK
2679,1680101146.00,Data write: F5
2680,1680123662.00,ACK
2681,1680128646.00,Data write: D1
2682,1680151150.00,ACK
2683,1680156148.00,Data write: 40
2684,1680178658.00,ACK
2685,1680183646.00,Data write: E0
2686,1680206162.00,ACK
2687,1680211198.00,Data write: 00
2688,1680233712.00,ACK
2689,1680238698.00,Data write: 23
2690,1680261200.00,ACK
2691,1680266248.00,Data write: 1E
2692,1680288734.00,ACK
2693,1680293720.00,Data write: E0
2694,1680316200.00,ACK
2695,1680321246.00,Data write: 03
2696,1680343726.00,ACK
2697,1680348694.00,Data write: 9A
2698,1680371214.00,ACK
2699,1680376246.00,Data write: 00
2700,1680398738.00,ACK
2701,1680403718.00,Data write: 93
2702,1680426202.00,ACK
2703,1680431242.00,Data write: D3
2704,1680453754.00,ACK
2705,1680458744.00,Data write: 5C
2706,1680481260.00,ACK
2707,1680486294.00,Data write: 02
2708,1680508808.00,ACK
2709,1680513794.00,Data write: 46
2710,1680536274.00,ACK
2711,1680541294.00,Data write: 03
2712,1680563798.00,ACK
2713,1680568742.00,Data write: 70
2714,1680591246.00,ACK
2715,1680596242.00,Data write: 03
2716,1680618756.00,ACK
2717,1680623742.00,Data write: 46
2718,1680646222.00,ACK
2719,1680651242.00,Data write: 1E
2720,1680673732.00,ACK
2721,1680678716.00,Data write: 4A
2722,1680701216.00,ACK
2723,1680706242.00,Data write: 04
2724,1680728724.00,ACK
2725,1680733712.00,Data write: 92
2726,1680756192.00,ACK
2727,1680761240.00,Data write: 02
2728,1680783740.00,ACK
2729,1680788714.00,Data write: 46
2730,1680811202.00,ACK
2731,1680816238.00,Data write: 23
2732,1680838752.00,ACK
2733,1680843738.00,Data write: 68
2734,1680866220.00,ACK
2735,1680871238.00,Data write: 2B
2736,1680893748.00,ACK
2737,1680898738.00,Data write: 42
2738,1680921214.00,ACK
2739,1680926286.00,Data write: 07
2740,1680948804.00,ACK
2741,1680953834.00,Data write: D0
2742,1680976334.00,ACK
2743,1680981436.00,Data write: 04
2744,1681003920.00,ACK
2745,1681008934.00,Data write: 9A
2746,1681031448.00,ACK
2747,1681036486.00,Data write: 53
2748,1681058994.00,ACK
2749,1681063986.00,Data write: 1E
2750,1681086480.00,ACK
2751,1681091536.00,Data write: 04
2752,1681114070.00,ACK
2753,1681119032.00,Data write: 93
2754,1681141516.00,ACK
2755,1681146534.00,Data write: 09
2756,1681169024.00,ACK
2757,1681174010.00,Data write: 23
2758,1681196490.00,ACK
2759,1681201532.00,Data write: 00
2760,1681224014.00,ACK
2761,1681228982.00,Data write: 2A
2762,1681251478.00,ACK
2763,1681256534.00,Data write: 02
2764,1681279026.00,ACK
2765,1681284008.00,Data write: 46
2766,1681306488.00,ACK
2767,1681311530.00,Data write: F5
2768,1681334012.00,ACK
2769,1681338978.00,Data write: D1
2770,1681361474.00,ACK
2771,1681366530.00,Data write: 2A
2772,1681389042.00,ACK
2773,1681394028.00,Data write: E0
2774,1681416546.00,ACK
2775,1681421580.00,Data write: 10
2776,1681444092.00,ACK
2777,1681449080.00,Data write: 46
2778,1681471578.00,ACK
2779,1681476630.00,Data write: 03
2780,1681499110.00,ACK
2781,1681504076.00,Data write: 9A
2782,1681526574.00,ACK
2783,1681531628.00,Data write: 00
2784,1681554126.00,ACK
2785,1681559100.00,Data write: 9B
2786,1681581592.00,ACK
2787,1681586624.00,Data write: D2
2788,1681609118.00,ACK
2789,1681614102.00,Data write: 5C
2790,1681636582.00,ACK
2791,1681641628.00,Data write: 03
2792,1681664130.00,ACK
2793,1681669102.00,Data write: 78
2794,1681691594.00,ACK
2795,1681696624.00,Data write: 9A
2796,1681719106.00,ACK
2797,1681724076.00,Data write: 42
2798,1681746594.00,ACK
2799,1681751626.00,Data write: 18
2800,1681774122.00,ACK
2801,1681779098.00,Data write: D1
2802,1681801588.00,ACK
2803,1681806626.00,Data write: 00
2804,1681829118.00,ACK
2805,1681834096.00,Data write: 9A
2806,1681856606.00,ACK
2807,1681861624.00,Data write: 52
2808,1681884116.00,ACK
2809,1681889100.00,Data write: 1C
2810,1681911582.00,ACK
2811,1681916674.00,Data write: 40
2812,1681939158.00,ACK
2813,1681944172.00,Data write: 1C
2814,1681966688.00,ACK
2815,1681971722.00,Data write: 13
2816,1681994238.00,ACK
2817,1681999222.00,Data write: 46
2818,1682021710.00,ACK
2819,1682026772.00,Data write: 02
2820,1682049260.00,ACK
2821,1682054270.00,Data write: 9A
2822,1682076770.00,ACK
2823,1682081818.00,Data write: 93
2824,1682104300.00,ACK
2825,1682109296.00,Data write: 42
2826,1682131786.00,ACK
2827,1682136818.00,Data write: DD
2828,1682159316.00,ACK
2829,1682164316.00,Data write: D3
2830,1682186824.00,ACK
2831,1682191868.00,Data write: 10
2832,1682214350.00,ACK
2833,1682219370.00,Data write: 49
2834,1682241854.00,ACK
2835,1682246918.00,Data write: 04
2836,1682269402.00,ACK
2837,1682274416.00,Data write: 91
2838,1682296930.00,ACK
2839,1682301992.00,Data write: 72
2840,1682324500.00,ACK
2841,1682329518.00,Data write: 48
2842,1682352030.00,ACK
2843,1682357092.00,Data write: 21
2844,1682379620.00,ACK
2845,1682384616.00,Data write: 68
2846,1682407104.00,ACK
2847,1682412164.00,Data write: E0
2848,1682434652.00,ACK
2849,1682439666.00,Data write: 60
2850,1682462176.00,ACK
2851,1682467212.00,Data write: E6
2852,1682489706.00,ACK
2853,1682494716.00,Data write: 60
2854,1682517212.00,ACK
2855,1682522264.00,Data write: 39
2856,1682544758.00,ACK
2857,1682549764.00,Data write: 42
2858,1682572264.00,ACK
2859,1682577314.00,Data write: 0B
2860,1682599832.00,ACK
2861,1682604810.00,Data write: D0
2862,1682627302.00,ACK
2863,1682632364.00,Data write: 21
2864,1682654886.00,ACK
2865,1682659888.00,Data write: 68
2866,1682682372.00,ACK
2867,1682687410.00,Data write: B9
2868,1682709896.00,ACK
2869,1682714912.00,Data write: 43
2870,1682737444.00,ACK
2871,1682742512.00,Data write: 21
2872,1682764992.00,ACK
2873,1682770010.00,Data write: 60
2874,1682792542.00,ACK
2875,1682797586.00,Data write: 04
2876,1682820074.00,ACK
2877,1682825082.00,Data write: 99
2878,1682847584.00,ACK
2879,1682852610.00,Data write: 4A
2880,1682875134.00,ACK
2881,1682880110.00,Data write: 1E
2882,1682902608.00,ACK
2883,1682908208.00,Data write: 04
2884,1682930718.00,ACK
2885,1682935780.00,Data write: 92
2886,1682958268.00,ACK
2887,1682963410.00,Data write: 09
2888,1682985924.00,ACK
2889,1682990982.00,Data write: 23
2890,1683013474.00,ACK
2891,1683018508.00,Data write: 00
2892,1683041028.00,ACK
2893,1683046008.00,Data write: 29
2894,1683068496.00,ACK
2895,1683073554.00,Data write: F1
2896,1683096046.00,ACK
2897,1683101054.00,Data write: D1
2898,1683123556.00,ACK
2899,1683128606.00,Data write: 0A
2900,1683151088.00,ACK
2901,1683156102.00,Data write: E0
2902,1683178640.00,ACK
2903,1683183706.00,Data write: 0B
2904,1683206214.00,ACK
2905,1683211206.00,Data write: 46
2906,1683233702.00,ACK
2907,1683238754.00,Data write: 08
2908,1683261236.00,ACK
2909,1683266252.00,Data write: E0
2910,1683288770.00,ACK
2911,1683293804.00,Data write: 00
2912,1683316320.00,ACK
2913,1683321304.00,Data write: 23
2914,1683343784.00,ACK
2915,1683348802.00,Data write: 23
2916,1683371292.00,ACK
2917,1683376302.00,Data write: 61
2918,1683398780.00,ACK
2919,1683403802.00,Data write: 68
2920,1683426308.00,ACK
2921,1683431302.00,Data write: 48
2922,1683453816.00,ACK
2923,1683458874.00,Data write: E0
2924,1683481366.00,ACK
2925,1683486376.00,Data write: 60
2926,1683508878.00,ACK
2927,1683513898.00,Data write: E6
2928,1683536390.00,ACK
2929,1683541400.00,Data write: 60
2930,1683563898.00,ACK
2931,1683568950.00,Data write: 20
2932,1683591456.00,ACK
2933,1683596450.00,Data write: 68
2934,1683618966.00,ACK
2935,1683624000.00,Data write: 01
2936,1683646514.00,ACK
2937,1683651496.00,Data write: 99
2938,1683673982.00,ACK
2939,1683679048.00,Data write: 08
2940,1683701534.00,ACK
2941,1683706548.00,Data write: 43
2942,1683729062.00,ACK
2943,1683734098.00,Data write: 20
2944,1683756592.00,ACK
2945,1683761598.00,Data write: 60
2946,1683784098.00,ACK
2947,1683789146.00,Data write: 18
2948,1683811632.00,ACK
2949,1683816646.00,Data write: 46
2950,1683839164.00,ACK
2951,1683844196.00,Data write: 05
2952,1683866716.00,ACK
2953,1683871692.00,Data write: B0
2954,1683894182.00,ACK
2955,1683899242.00,Data write: F0
2956,1683921780.00,ACK
2957,1683926792.00,Data write: BD
2958,1683949288.00,ACK
2959,1683954392.00,Data write: C0
2960,1683976904.00,ACK
2961,1683981968.00,Data write: 46
2962,1684004456.00,ACK
2963,1684009492.00,Data write: FF
2964,1684032004.00,ACK
2965,1684036990.00,Data write: FF
2966,1684059514.00,ACK
2967,1684064568.00,Data write: 00
2968,1684087068.00,ACK
2969,1684092068.00,Data write: 00
2970,1684114598.00,ACK
2971,1684119642.00,Data write: 02
2972,1684142128.00,ACK
2973,1684147142.00,Data write: 48
2974,1684169658.00,ACK
2975,1684174690.00,Data write: 01
2976,1684197208.00,ACK
2977,1684202190.00,Data write: 68
2978,1684224680.00,ACK
2979,1684229740.00,Data write: 01
2980,1684252270.00,ACK
2981,1684257264.00,Data write: 20
2982,1684279758.00,ACK
2983,1684284790.00,Data write: 08
2984,1684307288.00,ACK
2985,1684312290.00,Data write: 40
2986,1684334798.00,ACK
2987,1684339864.00,Data write: 70
2988,1684362348.00,ACK
2989,1684367364.00,Data write: 47
2990,1684389894.00,ACK
2991,1684394936.00,Data write: C0
2992,1684417418.00,ACK
2993,1684422388.00,Data write: 46
2994,1684444888.00,ACK
2995,1684449938.00,Data write: 18
2996,1684472438.00,ACK
2997,1684477436.00,Data write: 18
2998,1684499946.00,ACK
2999,1684504986.00,Data write: 00
3000,1684527492.00,ACK
3001,1684532486.00,Data write: 40
3002,1684554976.00,ACK
3003,1684560036.00,Data write: 6C
3004,1684582524.00,ACK
3005,1684587536.00,Data write: 48
3006,1684610050.00,ACK
3007,1684615084.00,Data write: 00
3008,1684637576.00,ACK
3009,1684642584.00,Data write: 68
3010,1684665086.00,ACK
3011,1684670132.00,Data write: C0
3012,1684692614.00,ACK
3013,1684697632.00,Data write: B2
3014,1684720144.00,ACK
3015,1684725184.00,Data write: 70
3016,1684747688.00,ACK
3017,1684752682.00,Data write: 47
3018,1684775194.00,ACK
3019,1684780258.00,Data write: 05
3020,1684802782.00,ACK
3021,1684807782.00,Data write: 48
3022,1684830268.00,ACK
3023,1684835332.00,Data write: 01
3024,1684857812.00,ACK
3025,1684862782.00,Data write: 68
3026,1684885280.00,ACK
3027,1684890332.00,Data write: 14
3028,1684912824.00,ACK
3029,1684917880.00,Data write: 20
3030,1684940394.00,ACK
3031,1684945480.00,Data write: 08
3032,1684967984.00,ACK
3033,1684973030.00,Data write: 40
3034,1684995512.00,ACK
3035,1685000580.00,Data write: 70
3036,1685023100.00,ACK
3037,1685028080.00,Data write: 47
3038,1685050566.00,ACK
3039,1685055626.00,Data write: C0
3040,1685078114.00,ACK
3041,1685083128.00,Data write: 46
3042,1685105640.00,ACK
3043,1685110678.00,Data write: 02
3044,1685133188.00,ACK
3045,1685138178.00,Data write: 48
3046,1685160672.00,ACK
3047,1685165728.00,Data write: 01
3048,1685188242.00,ACK
3049,1685193252.00,Data write: 68
3050,1685215752.00,ACK
3051,1685220776.00,Data write: 01
3052,1685243262.00,ACK
3053,1685248276.00,Data write: 20
3054,1685270794.00,ACK
3055,1685275850.00,Data write: 08
3056,1685298362.00,ACK
3057,1685303376.00,Data write: 40
3058,1685325892.00,ACK
3059,1685330950.00,Data write: 70
3060,1685353482.00,ACK
3061,1685358474.00,Data write: 47
3062,1685380970.00,ACK
3063,1685386020.00,Data write: C0
3064,1685408514.00,ACK
3065,1685413524.00,Data write: 46
3066,1685436040.00,ACK
3067,1685441074.00,Data write: 10
3068,1685463562.00,ACK
3069,1685468570.00,Data write: 80
3070,1685491068.00,ACK
3071,1685496122.00,Data write: 00
3072,1685518614.00,ACK
3073,1685523622.00,Data write: 40
3074,1685546120.00,ACK
3075,1685551172.00,Data write: 10
3076,1685573690.00,ACK
3077,1685578668.00,Data write: B5
3078,1685601156.00,ACK
3079,1685606220.00,Data write: 19
3080,1685628746.00,ACK
3081,1685633746.00,Data write: 48
3082,1685656228.00,ACK
3083,1685661270.00,Data write: 01
3084,1685683754.00,ACK
3085,1685688768.00,Data write: 68
3086,1685711304.00,ACK
3087,1685716370.00,Data write: 56
3088,1685738852.00,ACK
3089,1685743868.00,Data write: 48
3090,1685766402.00,ACK
3091,1685771466.00,Data write: 81
3092,1685793950.00,ACK
3093,1685798968.00,Data write: 60
3094,1685821452.00,ACK
3095,1685826518.00,Data write: 51
3096,1685848998.00,ACK
3097,1685854018.00,Data write: 49
3098,1685876530.00,ACK
3099,1685881566.00,Data write: 51
3100,1685904058.00,ACK
3101,1685909466.00,Data write: 4A
3102,1685931964.00,ACK
3103,1685937064.00,Data write: CA
3104,1685959556.00,ACK
3105,1685964616.00,Data write: 60
3106,1685987108.00,ACK
3107,1685992240.00,Data write: 51
3108,1686014742.00,ACK
3109,1686019764.00,Data write: 4A
3110,1686042276.00,ACK
3111,1686047362.00,Data write: CA
3112,1686069870.00,ACK
3113,1686074864.00,Data write: 60
3114,1686097382.00,ACK
3115,1686102438.00,Data write: 0A
3116,1686124952.00,ACK
3117,1686129962.00,Data write: 68
3118,1686152460.00,ACK
3119,1686157514.00,Data write: 0C
3120,1686179992.00,ACK
3121,1686184962.00,Data write: 23
3122,1686207460.00,ACK
3123,1686212508.00,Data write: 9A
3124,1686235030.00,ACK
3125,1686240036.00,Data write: 43
3126,1686262536.00,ACK
3127,1686267562.00,Data write: 0A
3128,1686290046.00,ACK
3129,1686295062.00,Data write: 60
3130,1686317558.00,ACK
3131,1686322608.00,Data write: C1
3132,1686345108.00,ACK
3133,1686350110.00,Data write: 69
3134,1686372616.00,ACK
3135,1686377660.00,Data write: 13
3136,1686400144.00,ACK
3137,1686405160.00,Data write: 4A
3138,1686427656.00,ACK
3139,1686432708.00,Data write: 11
3140,1686455192.00,ACK
3141,1686460208.00,Data write: 40
3142,1686482722.00,ACK
3143,1686487756.00,Data write: C1
3144,1686510268.00,ACK
3145,1686515258.00,Data write: 61
3146,1686537736.00,ACK
3147,1686542758.00,Data write: 41
3148,1686565244.00,ACK
3149,1686570258.00,Data write: 6A
3150,1686592752.00,ACK
3151,1686597806.00,Data write: 11
3152,1686620302.00,ACK
3153,1686625306.00,Data write: 40
3154,1686647812.00,ACK
3155,1686652856.00,Data write: 41
3156,1686675340.00,ACK
3157,1686680356.00,Data write: 62
3158,1686702846.00,ACK
3159,1686707904.00,Data write: 01
3160,1686730392.00,ACK
3161,1686735404.00,Data write: 21
3162,1686757920.00,ACK
3163,1686762954.00,Data write: 0A
3164,1686785470.00,ACK
3165,1686790454.00,Data write: 07
3166,1686812934.00,ACK
3167,1686817952.00,Data write: 43
3168,1686840442.00,ACK
3169,1686845452.00,Data write: 6A
3170,1686867950.00,ACK
3171,1686873002.00,Data write: 13
3172,1686895498.00,ACK
3173,1686900502.00,Data write: 43
3174,1686922998.00,ACK
3175,1686928102.00,Data write: 43
3176,1686950608.00,ACK
3177,1686955702.00,Data write: 62
3178,1686978198.00,ACK
3179,1686983326.00,Data write: 08
3180,1687005828.00,ACK
3181,1687010850.00,Data write: 22
3182,1687033338.00,ACK
3183,1687038398.00,Data write: D3
3184,1687060904.00,ACK
3185,1687065900.00,Data write: 43
3186,1687088414.00,ACK
3187,1687093446.00,Data write: C4
3188,1687115940.00,ACK
3189,1687120950.00,Data write: 69
3190,1687143446.00,ACK
3191,1687148498.00,Data write: 1C
3192,1687170996.00,ACK
3193,1687175998.00,Data write: 40
3194,1687198504.00,ACK
3195,1687203546.00,Data write: C4
3196,1687226034.00,ACK
3197,1687231046.00,Data write: 61
3198,1687253540.00,ACK
3199,1687258596.00,Data write: 44
3200,1687281088.00,ACK
3201,1687286096.00,Data write: 6A
3202,1687308614.00,ACK
3203,1687313646.00,Data write: 1C
3204,1687336160.00,ACK
3205,1687341146.00,Data write: 40
3206,1687363624.00,ACK
3207,1687368646.00,Data write: 44
3208,1687391132.00,ACK
3209,1687396144.00,Data write: 62
3210,1687418640.00,ACK
3211,1687423694.00,Data write: 43
3212,1687446190.00,ACK
3213,1687451194.00,Data write: 6A
3214,1687473698.00,ACK
3215,1687478744.00,Data write: 13
3216,1687501222.00,ACK
3217,1687506218.00,Data write: 43
3218,1687528732.00,ACK
3219,1687533792.00,Data write: 43
3220,1687556278.00,ACK
3221,1687561292.00,Data write: 62
3222,1687583806.00,ACK
3223,1687588842.00,Data write: 4A
3224,1687611354.00,ACK
3225,1687616342.00,Data write: 02
3226,1687638820.00,ACK
3227,1687643840.00,Data write: 03
3228,1687666328.00,ACK
3229,1687671340.00,Data write: 68
3230,1687693840.00,ACK
3231,1687698888.00,Data write: 93
3232,1687721388.00,ACK
3233,1687726390.00,Data write: 43
3234,1687748894.00,ACK
3235,1687753940.00,Data write: 03
3236,1687776420.00,ACK
3237,1687781440.00,Data write: 60
3238,1687803930.00,ACK
3239,1687808986.00,Data write: CA
3240,1687831478.00,ACK
3241,1687836490.00,Data write: 43
3242,1687859004.00,ACK
3243,1687864038.00,Data write: 03
3244,1687886552.00,ACK
3245,1687891538.00,Data write: 6A
3246,1687914016.00,ACK
3247,1687919038.00,Data write: 13
3248,1687941522.00,ACK
3249,1687946536.00,Data write: 40
3250,1687969032.00,ACK
3251,1687974086.00,Data write: 03
3252,1687996576.00,ACK
3253,1688001586.00,Data write: 62
3254,1688024104.00,ACK
3255,1688029134.00,Data write: 83
3256,1688051634.00,ACK
3257,1688056636.00,Data write: 6A
3258,1688079142.00,ACK
3259,1688084186.00,Data write: 13
3260,1688106670.00,ACK
3261,1688111684.00,Data write: 40
3262,1688134178.00,ACK
3263,1688139232.00,Data write: 83
3264,1688161750.00,ACK
3265,1688166734.00,Data write: 62
3266,1688189214.00,ACK
3267,1688194232.00,Data write: 82
3268,1688216718.00,ACK
3269,1688221732.00,Data write: 6A
3270,1688244222.00,ACK
3271,1688249282.00,Data write: 0A
3272,1688271794.00,ACK
3273,1688276808.00,Data write: 43
3274,1688299324.00,ACK
3275,1688304378.00,Data write: 82
3276,1688326874.00,ACK
3277,1688331882.00,Data write: 62
3278,1688354420.00,ACK
3279,1688359482.00,Data write: 10
3280,1688381970.00,ACK
3281,1688386978.00,Data write: BD
3282,1688409478.00,ACK
3283,1688414528.00,Data write: BC
3284,1688437010.00,ACK
3285,1688442006.00,Data write: 07
3286,1688464518.00,ACK
3287,1688469580.00,Data write: 10
3288,1688492094.00,ACK
3289,1688497104.00,Data write: 00
3290,1688519622.00,ACK
3291,1688524676.00,Data write: FF
3292,1688547174.00,ACK
3293,1688552176.00,Data write: FF
3294,1688574686.00,ACK
3295,1688579726.00,Data write: FF
3296,1688602218.00,ACK
3297,1688607224.00,Data write: EF
3298,1688629744.00,ACK
3299,1688634800.00,Data write: F8
3300,1688657316.00,ACK
3301,1688662324.00,Data write: B5
3302,1688684840.00,ACK
3303,1688689902.00,Data write: 37
3304,1688712434.00,ACK
3305,1688717426.00,Data write: 49
3306,1688739920.00,ACK
3307,1688744976.00,Data write: 37
3308,1688767472.00,ACK
3309,1688772476.00,Data write: 48
3310,1688794978.00,ACK
3311,1688800022.00,Data write: C8
3312,1688822504.00,ACK
3313,1688827500.00,Data write: 60
3314,1688850010.00,ACK
3315,1688855074.00,Data write: 37
3316,1688877560.00,ACK
3317,1688882574.00,Data write: 48
3318,1688905084.00,ACK
3319,1688910220.00,Data write: C8
3320,1688932718.00,ACK
3321,1688937798.00,Data write: 60
3322,1688960306.00,ACK
3323,1688965424.00,Data write: 0A
3324,1688987938.00,ACK
3325,1688992922.00,Data write: 68
3326,1689015424.00,ACK
3327,1689020472.00,Data write: 0C
3328,1689042952.00,ACK
3329,1689047922.00,Data write: 20
3330,1689070436.00,ACK
3331,1689075492.00,Data write: 82
3332,1689097982.00,ACK
3333,1689102996.00,Data write: 43
3334,1689125504.00,ACK
3335,1689130570.00,Data write: 04
3336,1689153050.00,ACK
3337,1689158020.00,Data write: 26
3338,1689180510.00,ACK
3339,1689185570.00,Data write: 32
3340,1689208058.00,ACK
3341,1689213070.00,Data write: 43
3342,1689235586.00,ACK
3343,1689240618.00,Data write: 0A
3344,1689263136.00,ACK
3345,1689268118.00,Data write: 60
3346,1689290600.00,ACK
3347,1689295668.00,Data write: 34
3348,1689318190.00,ACK
3349,1689323192.00,Data write: 49
3350,1689345674.00,ACK
3351,1689350716.00,Data write: 09
3352,1689373202.00,ACK
3353,1689378216.00,Data write: 68
3354,1689400752.00,ACK
3355,1689405816.00,Data write: 34
3356,1689428300.00,ACK
3357,1689433316.00,Data write: 4F
3358,1689455850.00,ACK
3359,1689460914.00,Data write: B9
3360,1689483398.00,ACK
3361,1689488416.00,Data write: 60
3362,1689510906.00,ACK
3363,1689515964.00,Data write: 01
3364,1689538452.00,ACK
3365,1689543464.00,Data write: 24
3366,1689565978.00,ACK
3367,1689571014.00,Data write: 21
3368,1689593510.00,ACK
3369,1689598514.00,Data write: 07
3370,1689621018.00,ACK
3371,1689626060.00,Data write: FA
3372,1689648548.00,ACK
3373,1689653562.00,Data write: 69
3374,1689676056.00,ACK
3375,1689681112.00,Data write: 0A
3376,1689703606.00,ACK
3377,1689708612.00,Data write: 43
3378,1689731112.00,ACK
3379,1689736158.00,Data write: FA
3380,1689758670.00,ACK
3381,1689763686.00,Data write: 61
3382,1689786200.00,ACK
3383,1689791260.00,Data write: 32
3384,1689813794.00,ACK
3385,1689818810.00,Data write: 49
3386,1689841304.00,ACK
3387,1689846360.00,Data write: 0A
3388,1689868856.00,ACK
3389,1689873860.00,Data write: 68
3390,1689896364.00,ACK
3391,1689901410.00,Data write: 02
3392,1689923896.00,ACK
3393,1689928910.00,Data write: 23
3394,1689951404.00,ACK
3395,1689956458.00,Data write: 1A
3396,1689978958.00,ACK
3397,1689983958.00,Data write: 43
3398,1690006468.00,ACK
3399,1690011508.00,Data write: 0A
3400,1690034018.00,ACK
3401,1690039008.00,Data write: 60
3402,1690061486.00,ACK
3403,1690066504.00,Data write: FC
3404,1690088998.00,ACK
3405,1690094006.00,Data write: 25
3406,1690116508.00,ACK
3407,1690121556.00,Data write: 30
3408,1690144040.00,ACK
3409,1690149056.00,Data write: 4A
3410,1690171554.00,ACK
3411,1690176606.00,Data write: 50
3412,1690199084.00,ACK
3413,1690204080.00,Data write: 59
3414,1690226594.00,ACK
3415,1690231652.00,Data write: DB
3416,1690254160.00,ACK
3417,1690259180.00,Data write: 43
3418,1690281670.00,ACK
3419,1690286704.00,Data write: 18
3420,1690309198.00,ACK
3421,1690314204.00,Data write: 40
3422,1690336702.00,ACK
3423,1690341754.00,Data write: 50
3424,1690364254.00,ACK
3425,1690369252.00,Data write: 51
3426,1690391758.00,ACK
3427,1690396802.00,Data write: 48
3428,1690419308.00,ACK
3429,1690424302.00,Data write: 68
3430,1690446794.00,ACK
3431,1690451852.00,Data write: 18
3432,1690474348.00,ACK
3433,1690479352.00,Data write: 40
3434,1690501852.00,ACK
3435,1690506900.00,Data write: 48
3436,1690529378.00,ACK
3437,1690534374.00,Data write: 60
3438,1690556892.00,ACK
3439,1690561950.00,Data write: 14
3440,1690584442.00,ACK
3441,1690589450.00,Data write: 60
3442,1690611968.00,ACK
3443,1690616998.00,Data write: 50
3444,1690639518.00,ACK
3445,1690644498.00,Data write: 59
3446,1690666984.00,ACK
3447,1690672048.00,Data write: 30
3448,1690694574.00,ACK
3449,1690699572.00,Data write: 43
3450,1690722060.00,ACK
3451,1690727098.00,Data write: 50
3452,1690749586.00,ACK
3453,1690754598.00,Data write: 51
3454,1690777134.00,ACK
3455,1690782194.00,Data write: 88
3456,1690804684.00,ACK
3457,1690809696.00,Data write: 69
3458,1690832232.00,ACK
3459,1690837296.00,Data write: 30
3460,1690859778.00,ACK
3461,1690864794.00,Data write: 43
3462,1690887286.00,ACK
3463,1690892342.00,Data write: 88
3464,1690914834.00,ACK
3465,1690919844.00,Data write: 61
3466,1690942364.00,ACK
3467,1690947394.00,Data write: 48
3468,1690969890.00,ACK
3469,1690974894.00,Data write: 68
3470,1690997396.00,ACK
3471,1691002442.00,Data write: B0
3472,1691024922.00,ACK
3473,1691029894.00,Data write: 43
3474,1691052406.00,ACK
3475,1691057468.00,Data write: 48
3476,1691079950.00,ACK
3477,1691084968.00,Data write: 60
3478,1691107480.00,ACK
3479,1691112542.00,Data write: 54
3480,1691135046.00,ACK
3481,1691140040.00,Data write: 60
3482,1691162552.00,ACK
3483,1691167588.00,Data write: F8
3484,1691190100.00,ACK
3485,1691195090.00,Data write: 69
3486,1691217584.00,ACK
3487,1691222640.00,Data write: 08
3488,1691245132.00,ACK
3489,1691250140.00,Data write: 21
3490,1691272636.00,ACK
3491,1691277690.00,Data write: 01
3492,1691300186.00,ACK
3493,1691305190.00,Data write: 43
3494,1691327696.00,ACK
3495,1691332762.00,Data write: F9
3496,1691355244.00,ACK
3497,1691360264.00,Data write: 61
3498,1691382750.00,ACK
3499,1691387788.00,Data write: 25
3500,1691410276.00,ACK
3501,1691415286.00,Data write: 48
3502,1691437784.00,ACK
3503,1691442838.00,Data write: 00
3504,1691465354.00,ACK
3505,1691470362.00,Data write: 21
3506,1691492862.00,ACK
3507,1691497886.00,Data write: 01
3508,1691520390.00,ACK
3509,1691525386.00,Data write: 60
3510,1691547898.00,ACK
3511,1691552960.00,Data write: 50
3512,1691575448.00,ACK
3513,1691580460.00,Data write: 22
3514,1691602980.00,ACK
3515,1691608036.00,Data write: 02
3516,1691630550.00,ACK
3517,1691635560.00,Data write: 60
3518,1691658060.00,ACK
3519,1691663084.00,Data write: 03
3520,1691685570.00,ACK
3521,1691690584.00,Data write: 25
3522,1691713078.00,ACK
3523,1691718134.00,Data write: 6A
3524,1691740630.00,ACK
3525,1691745632.00,Data write: 02
3526,1691768138.00,ACK
3527,1691773182.00,Data write: 03
3528,1691795664.00,ACK
3529,1691800658.00,Data write: 68
3530,1691823168.00,ACK
3531,1691828228.00,Data write: 93
3532,1691850716.00,ACK
3533,1691855732.00,Data write: 43
3534,1691878244.00,ACK
3535,1691883278.00,Data write: A2
3536,1691905792.00,ACK
3537,1691910856.00,Data write: 02
3538,1691933340.00,ACK
3539,1691938480.00,Data write: 1A
3540,1691960996.00,ACK
3541,1691966056.00,Data write: 43
3542,1691988566.00,ACK
3543,1691993654.00,Data write: 02
3544,1692016160.00,ACK
3545,1692021180.00,Data write: 60
3546,1692043690.00,ACK
3547,1692048754.00,Data write: 68
3548,1692071258.00,ACK
3549,1692076254.00,Data write: 22
3550,1692098766.00,ACK
3551,1692103828.00,Data write: 42
3552,1692126314.00,ACK
3553,1692131328.00,Data write: 61
3554,1692153838.00,ACK
3555,1692158876.00,Data write: 01
3556,1692181382.00,ACK
3557,1692186376.00,Data write: 61
3558,1692208890.00,ACK
3559,1692213952.00,Data write: 02
3560,1692236480.00,ACK
3561,1692241476.00,Data write: 68
3562,1692263970.00,ACK
3563,1692269026.00,Data write: 22
3564,1692291520.00,ACK
3565,1692296524.00,Data write: 43
3566,1692319030.00,ACK
3567,1692324074.00,Data write: 02
3568,1692346560.00,ACK
3569,1692351574.00,Data write: 60
3570,1692374068.00,ACK
3571,1692379124.00,Data write: 09
3572,1692401618.00,ACK
3573,1692406648.00,Data write: 20
3574,1692429148.00,ACK
3575,1692434174.00,Data write: 22
3576,1692456700.00,ACK
3577,1692461674.00,Data write: 46
3578,1692484170.00,ACK
3579,1692489220.00,Data write: FF
3580,1692511762.00,ACK
3581,1692516770.00,Data write: F7
3582,1692539254.00,ACK
3583,1692544320.00,Data write: EA
3584,1692566802.00,ACK
3585,1692571768.00,Data write: FD
3586,1692594310.00,ACK
3587,1692599370.00,Data write: 14
3588,1692621860.00,ACK
3589,1692626870.00,Data write: 48
3590,1692649370.00,ACK
3591,1692654420.00,Data write: 78
3592,1692676900.00,ACK
3593,1692681870.00,Data write: 60
3594,1692704364.00,ACK
3595,1692709418.00,Data write: 14
3596,1692731936.00,ACK
3597,1692736944.00,Data write: 48
3598,1692759444.00,ACK
3599,1692764468.00,Data write: 78
3600,1692786958.00,ACK
3601,1692791968.00,Data write: 60
3602,1692814460.00,ACK
3603,1692819514.00,Data write: BB
3604,1692842010.00,ACK
3605,1692847018.00,Data write: 20
3606,1692869520.00,ACK
3607,1692874568.00,Data write: 40
3608,1692897050.00,ACK
3609,1692902066.00,Data write: 00
3610,1692924556.00,ACK
3611,1692929616.00,Data write: 01
3612,1692952106.00,ACK
3613,1692957116.00,Data write: 46
3614,1692979634.00,ACK
3615,1692984664.00,Data write: 8A
3616,1693007184.00,ACK
3617,1693012164.00,Data write: 31
3618,1693034644.00,ACK
3619,1693039664.00,Data write: 3A
3620,1693062148.00,ACK
3621,1693067164.00,Data write: 68
3622,1693089656.00,ACK
3623,1693094714.00,Data write: 0A
3624,1693117204.00,ACK
3625,1693122214.00,Data write: 43
3626,1693144710.00,ACK
3627,1693149764.00,Data write: 3A
3628,1693172240.00,ACK
3629,1693177238.00,Data write: 60
3630,1693199746.00,ACK
3631,1693204812.00,Data write: 39
3632,1693227314.00,ACK
3633,1693232312.00,Data write: 6A
3634,1693254822.00,ACK
3635,1693259862.00,Data write: 21
3636,1693282346.00,ACK
3637,1693287360.00,Data write: 43
3638,1693309874.00,ACK
3639,1693314936.00,Data write: 39
3640,1693337444.00,ACK
3641,1693342460.00,Data write: 62
3642,1693364968.00,ACK
3643,1693370032.00,Data write: FF
3644,1693392560.00,ACK
3645,1693397560.00,Data write: 21
3646,1693420044.00,ACK
3647,1693425108.00,Data write: 49
3648,1693447594.00,ACK
3649,1693452608.00,Data write: 00
3650,1693475118.00,ACK
3651,1693480158.00,Data write: 13
3652,1693502644.00,ACK
3653,1693507658.00,Data write: 4E
3654,1693530152.00,ACK
3655,1693535208.00,Data write: 32
3656,1693557702.00,ACK
3657,1693562706.00,Data write: 68
3658,1693585206.00,ACK
3659,1693590254.00,Data write: 8A
3660,1693612756.00,ACK
3661,1693617756.00,Data write: 43
3662,1693640262.00,ACK
3663,1693645332.00,Data write: 70
3664,1693667854.00,ACK
3665,1693672856.00,Data write: 21
3666,1693695340.00,ACK
3667,1693700406.00,Data write: 11
3668,1693722888.00,ACK
3669,1693727904.00,Data write: 43
3670,1693750416.00,ACK
3671,1693755454.00,Data write: 31
3672,1693777948.00,ACK
3673,1693782954.00,Data write: 60
3674,1693805456.00,ACK
3675,1693810502.00,Data write: 0F
3676,1693832986.00,ACK
3677,1693838004.00,Data write: 21
3678,1693860514.00,ACK
3679,1693865550.00,Data write: C9
3680,1693888062.00,ACK
3681,1693893052.00,Data write: 43
3682,1693915566.00,ACK
3683,1693920628.00,Data write: 70
3684,1693943158.00,ACK
3685,1693948152.00,Data write: 50
3686,1693970644.00,ACK
3687,1693975698.00,Data write: F0
3688,1693998196.00,ACK
3689,1694003200.00,Data write: 68
3690,1694025702.00,ACK
3691,1694030748.00,Data write: D6
3692,1694053230.00,ACK
3693,1694058222.00,Data write: C4
3694,1694080734.00,ACK
3695,1694087230.00,Stop
3696,1696056358.00,Start
3697,1696058992.00,Address write: 40
3698,1696076478.00,Write
3699,1696079394.00,ACK
3700,1696084622.00,Data write: 02
3701,1696106274.00,ACK
3702,1696111318.00,Data write: A5
3703,1696133174.00,ACK
3704,1696139626.00,Stop
3705,1696764598.00,Start
3706,1696767232.00,Address write: 40
3707,1696784718.00,Write
3708,1696787654.00,ACK
3709,1696792912.00,Data write: 00
3710,1696814538.00,ACK
3711,1696821498.00,Start repeat
3712,1696824094.00,Address read: 41
3713,1696841588.00,Read
3714,1696845070.00,ACK
3715,1696849960.00,Data read: 00
3716,1696869962.00,NACK
3717,1696876820.00,Stop
3718,1702820312.00,Start
3719,1702822946.00,Address write: 40
3720,1702840432.00,Write
3721,1702844458.00,ACK
3722,1702849724.00,Data write: 00
3723,1702882140.00,ACK
3724,1702889112.00,Start repeat
3725,1702891706.00,Address read: 41
3726,1702909202.00,Read
3727,1702918956.00,ACK
3728,1702923820.00,Data read: 02
3729,1702943826.00,NACK
3730,1702950630.00,Stop
3731,1708936274.00,Start
3732,1708938910.00,Address write: 40
3733,1708956394.00,Write
3734,1708969872.00,ACK
3735,1708975184.00,Data write: 00
3736,1709007552.00,ACK
3737,1709014524.00,Start repeat
3738,1709017118.00,Address read: 41
3739,1709034614.00,Read
3740,1709044366.00,ACK
3741,1709049332.00,Data read: 02
3742,1709069338.00,NACK
3743,1709076142.00,Stop
3744,1714697492.00,Start
3745,1714700126.00,Address write: 40
3746,1714717612.00,Write
3747,1714750620.00,ACK
3748,1714755926.00,Data write: 00
3749,1714788306.00,ACK
3750,1714795316.00,Start repeat
3751,1714797910.00,Address read: 41
3752,1714815406.00,Read
3753,1714825120.00,ACK
3754,1714830026.00,Data read: 02
3755,1714850032.00,NACK
3756,1714856836.00,Stop
3757,1720793256.00,Start
3758,1720795890.00,Address write: 40
3759,1720813374.00,Write
3760,1720816294.00,ACK
3761,1720821570.00,Data write: 00
3762,1720843194.00,ACK
3763,1720850154.00,Start repeat
3764,1720852750.00,Address read: 41
3765,1720870246.00,Read
3766,1720873720.00,ACK
3767,1720878618.00,Data read: 03
3768,1720898620.00,NACK
3769,1720909782.00,Stop
3770,1721494896.00,Start
3771,1721497530.00,Address write: 40
3772,1721515014.00,Write
3773,1721517938.00,ACK
3774,1721523210.00,Data write: 06
3775,1721544838.00,ACK
3776,1721551820.00,Start repeat
3777,1721554416.00,Address read: 41
3778,1721571910.00,Read
3779,1721575614.00,ACK
3780,1721580532.00,Data read: 0B
3781,1721600540.00,ACK
3782,1721605758.00,Data read: 00
3783,1721625760.00,NACK
3784,1721632466.00,Stop
3785,1722351482.00,Start
3786,1722354118.00,Address write: 40
3787,1722371602.00,Write
3788,1722374536.00,ACK
3789,1722379822.00,Data write: 20
3790,1722401934.00,ACK
3791,1722409008.00,Start repeat
3792,1722411604.00,Address read: 41
3793,1722429098.00,Read
3794,1722433480.00,ACK
3795,1722438420.00,Data read: 6D
3796,1722458426.00,ACK
3797,1722463642.00,Data read: AC
3798,1722483650.00,ACK
3799,1722488744.00,Data read: 01
3800,1722508750.00,ACK
3801,1722513920.00,Data read: 22
3802,1722533924.00,ACK
3803,1722539044.00,Data read: 02
3804,1722559048.00,ACK
3805,1722564218.00,Data read: 00
3806,1722584224.00,ACK
3807,1722589344.00,Data read: 01
3808,1722609348.00,ACK
3809,1722614518.00,Data read: 00
3810,1722634522.00,ACK
3811,1722639642.00,Data read: 00
3812,1722659648.00,ACK
3813,1722664816.00,Data read: 35
3814,1722684822.00,ACK
3815,1722689942.00,Data read: 09
3816,1722709944.00,NACK
3817,1722716652.00,Stop
3818,1723665814.00,Start
3819,1723668448.00,Address write: 40
3820,1723685934.00,Write
3821,1723688862.00,ACK
3822,1723694126.00,Data write: 02
3823,1723715760.00,ACK
3824,1723720876.00,Data write: 5A
3825,1723742558.00,ACK
3826,1723749034.00,Stop
3827,1724770798.00,Start
3828,1724773432.00,Address write: 40
3829,1724790918.00,Write
3830,1724793862.00,ACK
3831,1724799112.00,Data write: 00
3832,1724820760.00,ACK
3833,1724827748.00,Start repeat
3834,1724830344.00,Address read: 41
3835,1724847838.00,Read
3836,1724851326.00,ACK
3837,1724856210.00,Data read: 00
3838,1724876212.00,NACK
3839,1724883020.00,Stop
3840,1751039924.00,Start
3841,1751042558.00,Address write: 40
3842,1751060042.00,Write
3843,1751062974.00,ACK
3844,1751068286.00,Data write: 20
3845,1751090390.00,ACK
3846,1751095510.00,Data write: 6D
3847,1751118018.00,ACK
3848,1751123082.00,Data write: AC
3849,1751145564.00,ACK
3850,1751150634.00,Data write: 01
3851,1751173132.00,ACK
3852,1751178134.00,Data write: 22
3853,1751200640.00,ACK
3854,1751205684.00,Data write: 03
3855,1751228168.00,ACK
3856,1751233182.00,Data write: 00
3857,1751255716.00,ACK
3858,1751260782.00,Data write: 04
3859,1751283282.00,ACK
3860,1751288232.00,Data write: 02
3861,1751310726.00,ACK
3862,1751315732.00,Data write: 00
3863,1751338250.00,ACK
3864,1751343232.00,Data write: 26
3865,1751365712.00,ACK
3866,1751370732.00,Data write: 00
3867,1751393260.00,ACK
3868,1751398230.00,Data write: 00
3869,1751420724.00,ACK
3870,1751425728.00,Data write: A0
3871,1751448228.00,ACK
3872,1751453230.00,Data write: 43
3873,1751475716.00,ACK
3874,1751480778.00,Data write: F0
3875,1751503262.00,ACK
3876,1751508230.00,Data write: 60
3877,1751530766.00,ACK
3878,1751535828.00,Data write: 70
3879,1751558314.00,ACK
3880,1751563304.00,Data write: 68
3881,1751585818.00,ACK
3882,1751590828.00,Data write: 20
3883,1751613322.00,ACK
3884,1751618302.00,Data write: 43
3885,1751640784.00,ACK
3886,1751645826.00,Data write: 70
3887,1751668332.00,ACK
3888,1751673302.00,Data write: 60
3889,1751695794.00,ACK
3890,1751700826.00,Data write: 0E
3891,1751723344.00,ACK
3892,1751728326.00,Data write: 20
3893,1751750812.00,ACK
3894,1751755826.00,Data write: 29
3895,1751778338.00,ACK
3896,1751783324.00,Data write: 46
3897,1751805844.00,ACK
3898,1751810874.00,Data write: 22
3899,1751833368.00,ACK
3900,1751838324.00,Data write: 46
3901,1751860816.00,ACK
3902,1751865822.00,Data write: FF
3903,1751888342.00,ACK
3904,1751893320.00,Data write: F7
3905,1751915808.00,ACK
3906,1751920820.00,Data write: C6
3907,1751943354.00,ACK
3908,1751948320.00,Data write: FD
3909,1751970820.00,ACK
3910,1751975822.00,Data write: 30
3911,1751998332.00,ACK
3912,1752003322.00,Data write: 68
3913,1752025820.00,ACK
3914,1752030822.00,Data write: 20
3915,1752053330.00,ACK
3916,1752058320.00,Data write: 43
3917,1752080816.00,ACK
3918,1752085822.00,Data write: 30
3919,1752108324.00,ACK
3920,1752113296.00,Data write: 60
3921,1752135794.00,ACK
3922,1752140818.00,Data write: F8
3923,1752163326.00,ACK
3924,1752168316.00,Data write: BD
3925,1752190840.00,ACK
3926,1752195868.00,Data write: 20
3927,1752218370.00,ACK
3928,1752223318.00,Data write: 00
3929,1752245814.00,ACK
3930,1752250818.00,Data write: 02
3931,1752273320.00,ACK
3932,1752278294.00,Data write: 40
3933,1752300790.00,ACK
3934,1752305818.00,Data write: 5A
3935,1752328342.00,ACK
3936,1752333316.00,Data write: 5A
3937,1752355808.00,ACK
3938,1752360816.00,Data write: 00
3939,1752383318.00,ACK
3940,1752388292.00,Data write: 00
3941,1752410806.00,ACK
3942,1752415814.00,Data write: A5
3943,1752438314.00,ACK
3944,1752443288.00,Data write: A5
3945,1752465776.00,ACK
3946,1752470816.00,Data write: 00
3947,1752493306.00,ACK
3948,1752498290.00,Data write: 00
3949,1752520798.00,ACK
3950,1752525812.00,Data write: B0
3951,1752548310.00,ACK
3952,1752553290.00,Data write: 07
3953,1752575778.00,ACK
3954,1752580814.00,Data write: 10
3955,1752603326.00,ACK
3956,1752608314.00,Data write: 00
3957,1752630792.00,ACK
3958,1752635812.00,Data write: 04
3959,1752658302.00,ACK
3960,1752663288.00,Data write: 18
3961,1752685786.00,ACK
3962,1752690812.00,Data write: 02
3963,1752713314.00,ACK
3964,1752718286.00,Data write: 40
3965,1752740780.00,ACK
3966,1752745812.00,Data write: 08
3967,1752768308.00,ACK
3968,1752773286.00,Data write: 0D
3969,1752795798.00,ACK
3970,1752800810.00,Data write: 02
3971,1752823290.00,ACK
3972,1752828260.00,Data write: 40
3973,1752850760.00,ACK
3974,1752855810.00,Data write: 04
3975,1752878314.00,ACK
3976,1752883284.00,Data write: 0C
3977,1752905780.00,ACK
3978,1752910810.00,Data write: 02
3979,1752933292.00,ACK
3980,1752938308.00,Data write: 40
3981,1752960802.00,ACK
3982,1752965858.00,Data write: 04
3983,1752988348.00,ACK
3984,1752993356.00,Data write: 80
3985,1753015858.00,ACK
3986,1753020908.00,Data write: 00
3987,1753043388.00,ACK
3988,1753048382.00,Data write: 40
3989,1753070894.00,ACK
3990,1753075956.00,Data write: 10
3991,1753098466.00,ACK
3992,1753103482.00,Data write: 18
3993,1753125974.00,ACK
3994,1753131006.00,Data write: 00
3995,1753153484.00,ACK
3996,1753158480.00,Data write: 40
3997,1753180996.00,ACK
3998,1753186054.00,Data write: 06
3999,1753208566.00,ACK
4000,1753213580.00,Data write: 49
4001,1753236098.00,ACK
4002,1753241154.00,Data write: 0A
4003,1753263690.00,ACK
4004,1753268704.00,Data write: 68
4005,1753291198.00,ACK
4006,1753296250.00,Data write: FF
4007,1753318748.00,ACK
4008,1753323754.00,Data write: 23
4009,1753346254.00,ACK
4010,1753351300.00,Data write: 9A
4011,1753373784.00,ACK
4012,1753378778.00,Data write: 43
4013,1753401290.00,ACK
4014,1753406352.00,Data write: 02
4015,1753428840.00,ACK
4016,1753433852.00,Data write: 43
4017,1753456368.00,ACK
4018,1753461400.00,Data write: 0A
4019,1753483920.00,ACK
4020,1753488900.00,Data write: 60
4021,1753511386.00,ACK
4022,1753516450.00,Data write: 0A
4023,1753538980.00,ACK
4024,1753543974.00,Data write: 69
4025,1753566470.00,ACK
4026,1753571500.00,Data write: 02
4027,1753594004.00,ACK
4028,1753599000.00,Data write: 20
4029,1753621514.00,ACK
4030,1753626574.00,Data write: 02
4031,1753649066.00,ACK
4032,1753654074.00,Data write: 42
4033,1753676574.00,ACK
4034,1753681596.00,Data write: FB
4035,1753704082.00,ACK
4036,1753709094.00,Data write: D0
4037,1753731612.00,ACK
4038,1753736672.00,Data write: 4A
4039,1753759184.00,ACK
4040,1753764196.00,Data write: 69
4041,1753786696.00,ACK
4042,1753791744.00,Data write: 82
4043,1753814244.00,ACK
4044,1753819246.00,Data write: 43
4045,1753841736.00,ACK
4046,1753846796.00,Data write: 4A
4047,1753869282.00,ACK
4048,1753874296.00,Data write: 61
4049,1753896808.00,ACK
4050,1753907242.00,Data write: 70
4051,1753929752.00,ACK
4052,1753934794.00,Data write: 47
4053,1753957282.00,ACK
4054,1753962394.00,Data write: 00
4055,1753984932.00,ACK
4056,1753989940.00,Data write: 80
4057,1754012460.00,ACK
4058,1754017492.00,Data write: 00
4059,1754040010.00,ACK
4060,1754044992.00,Data write: 40
4061,1754067480.00,ACK
4062,1754072490.00,Data write: 80
4063,1754095010.00,ACK
4064,1754099990.00,Data write: B5
4065,1754122494.00,ACK
4066,1754127492.00,Data write: 00
4067,1754150004.00,ACK
4068,1754154988.00,Data write: F0
4069,1754177470.00,ACK
4070,1754182492.00,Data write: 09
4071,1754205004.00,ACK
4072,1754209988.00,Data write: F8
4073,1754232476.00,ACK
4074,1754237486.00,Data write: 80
4075,1754260008.00,ACK
4076,1754264986.00,Data write: BD
4077,1754287494.00,ACK
4078,1754292486.00,Data write: 81
4079,1754314982.00,ACK
4080,1754319962.00,Data write: B0
4081,1754342450.00,ACK
4082,1754347488.00,Data write: 00
4083,1754370000.00,ACK
4084,1754374988.00,Data write: 20
4085,1754397476.00,ACK
4086,1754402588.00,Data write: 00
4087,1754425090.00,ACK
4088,1754430058.00,Data write: 90
4089,1754452556.00,ACK
4090,1754457586.00,Data write: 00
4091,1754480086.00,ACK
4092,1754485058.00,Data write: 98
4093,1754507550.00,ACK
4094,1754512586.00,Data write: 00
4095,1754535080.00,ACK
4096,1754540060.00,Data write: 28
4097,1754562568.00,ACK
4098,1754567582.00,Data write: FC
4099,1754590078.00,ACK
4100,1754595056.00,Data write: D0
4101,1754617550.00,ACK
4102,1754622584.00,Data write: 01
4103,1754645098.00,ACK
4104,1754650082.00,Data write: B0
4105,1754672562.00,ACK
4106,1754677584.00,Data write: 70
4107,1754700074.00,ACK
4108,1754705058.00,Data write: 47
4109,1754727558.00,ACK
4110,1754732584.00,Data write: 70
4111,1754755088.00,ACK
4112,1754760056.00,Data write: 47
4113,1754782552.00,ACK
4114,1754787580.00,Data write: 80
4115,1754810080.00,ACK
4116,1754815054.00,Data write: B5
4117,1754837570.00,ACK
4118,1754842578.00,Data write: FF
4119,1754865060.00,ACK
4120,1754870028.00,Data write: F7
4121,1754892526.00,ACK
4122,1754897580.00,Data write: 5E
4123,1754920098.00,ACK
4124,1754925078.00,Data write: FF
4125,1754947562.00,ACK
4126,1754952580.00,Data write: 00
4127,1754975068.00,ACK
4128,1754980052.00,Data write: F0
4129,1755002558.00,ACK
4130,1755007576.00,Data write: 8A
4131,1755030088.00,ACK
4132,1755035076.00,Data write: F9
4133,1755057592.00,ACK
4134,1755062626.00,Data write: 80
4135,1755085122.00,ACK
4136,1755090074.00,Data write: BD
4137,1755112570.00,ACK
4138,1755117578.00,Data write: 00
4139,1755140076.00,ACK
4140,1755145052.00,Data write: 00
4141,1755167542.00,ACK
4142,1755172574.00,Data write: 80
4143,1755195072.00,ACK
4144,1755200048.00,Data write: B5
4145,1755222562.00,ACK
4146,1755227576.00,Data write: 01
4147,1755250070.00,ACK
4148,1755255050.00,Data write: 20
4149,1755277540.00,ACK
4150,1755282576.00,Data write: 00
4151,1755305090.00,ACK
4152,1755310076.00,Data write: 03
4153,1755332556.00,ACK
4154,1755337574.00,Data write: 01
4155,1755360058.00,ACK
4156,1755365048.00,Data write: 68
4157,1755387544.00,ACK
4158,1755392574.00,Data write: 06
4159,1755415072.00,ACK
4160,1755420048.00,Data write: 4A
4161,1755442538.00,ACK
4162,1755447570.00,Data write: 89
4163,1755470062.00,ACK
4164,1755475048.00,Data write: 18
4165,1755497552.00,ACK
4166,1755502570.00,Data write: C9
4167,1755525056.00,ACK
4168,1755530046.00,Data write: 0A
4169,1755552566.00,ACK
4170,1755557570.00,Data write: 02
4171,1755580070.00,ACK
4172,1755585046.00,Data write: 29
4173,1755607534.00,ACK
4174,1755612570.00,Data write: 07
4175,1755635084.00,ACK
4176,1755640068.00,Data write: D8
4177,1755662566.00,ACK
4178,1755667570.00,Data write: 41
4179,1755690072.00,ACK
4180,1755695044.00,Data write: 68
4181,1755717538.00,ACK
4182,1755722568.00,Data write: 04
4183,1755745064.00,ACK
4184,1755750044.00,Data write: 4A
4185,1755772550.00,ACK
4186,1755777568.00,Data write: 11
4187,1755800054.00,ACK
4188,1755805042.00,Data write: 60
4189,1755827558.00,ACK
4190,1755832568.00,Data write: 00
4191,1755855066.00,ACK
4192,1755860042.00,Data write: 68
4193,1755882530.00,ACK
4194,1755887564.00,Data write: 80
4195,1755910072.00,ACK
4196,1755915064.00,Data write: F3
4197,1755937560.00,ACK
4198,1755942614.00,Data write: 08
4199,1755965108.00,ACK
4200,1755970062.00,Data write: 88
4201,1755992572.00,ACK
4202,1755997614.00,Data write: 10
4203,1756020100.00,ACK
4204,1756025064.00,Data write: 68
4205,1756047544.00,ACK
4206,1756052562.00,Data write: 80
4207,1756075068.00,ACK
4208,1756080040.00,Data write: 47
4209,1756102552.00,ACK
4210,1756107560.00,Data write: 80
4211,1756130060.00,ACK
4212,1756135036.00,Data write: BD
4213,1756157542.00,ACK
4214,1756162560.00,Data write: FF
4215,1756185048.00,ACK
4216,1756190034.00,Data write: FF
4217,1756212554.00,ACK
4218,1756217558.00,Data write: FF
4219,1756240060.00,ACK
4220,1756245034.00,Data write: DF
4221,1756267526.00,ACK
4222,1756272560.00,Data write: 10
4223,1756295080.00,ACK
4224,1756300062.00,Data write: 00
4225,1756322548.00,ACK
4226,1756327560.00,Data write: 00
4227,1756350076.00,ACK
4228,1756355060.00,Data write: 20
4229,1756377546.00,ACK
4230,1756382556.00,Data write: 80
4231,1756405078.00,ACK
4232,1756410056.00,Data write: B5
4233,1756432566.00,ACK
4234,1756437608.00,Data write: 00
4235,1756460096.00,ACK
4236,1756465054.00,Data write: F0
4237,1756487564.00,ACK
4238,1756492554.00,Data write: 89
4239,1756515076.00,ACK
4240,1756520054.00,Data write: F8
4241,1756542542.00,ACK
4242,1756547556.00,Data write: 00
4243,1756570044.00,ACK
4244,1756575032.00,Data write: 28
4245,1756597528.00,ACK
4246,1756602554.00,Data write: FB
4247,1756625056.00,ACK
4248,1756630028.00,Data write: D1
4249,1756652520.00,ACK
4250,1756657552.00,Data write: FF
4251,1756680048.00,ACK
4252,1756685028.00,Data write: F7
4253,1756707530.00,ACK
4254,1756712556.00,Data write: 05
4255,1756735034.00,ACK
4256,1756740002.00,Data write: FF
4257,1756762500.00,ACK
4258,1756767552.00,Data write: FF
4259,1756790070.00,ACK
4260,1756795050.00,Data write: F7
4261,1756817536.00,ACK
4262,1756822550.00,Data write: E1
4263,1756845042.00,ACK
4264,1756850024.00,Data write: FF
4265,1756872530.00,ACK
4266,1756877550.00,Data write: FE
4267,1756900056.00,ACK
4268,1756907148.00,Data write: E7
4269,1756929662.00,ACK
4270,1756934748.00,Data write: 80
4271,1756957256.00,ACK
4272,1756962298.00,Data write: B5
4273,1756984780.00,ACK
4274,1756989850.00,Data write: 0F
4275,1757012368.00,ACK
4276,1757017352.00,Data write: 20
4277,1757039852.00,ACK
4278,1757044900.00,Data write: 00
4279,1757067380.00,ACK
4280,1757072350.00,Data write: 02
4281,1757094842.00,ACK
4282,1757099900.00,Data write: 00
4283,1757122394.00,ACK
4284,1757127398.00,Data write: 68
4285,1757149898.00,ACK
4286,1757154948.00,Data write: 02
4287,1757177428.00,ACK
4288,1757182424.00,Data write: 49
4289,1757204936.00,ACK
4290,1757209994.00,Data write: 88
4291,1757232484.00,ACK
4292,1757237498.00,Data write: 42
4293,1757260010.00,ACK
4294,1757265046.00,Data write: 01
4295,1757287556.00,ACK
4296,1757292544.00,Data write: D0
4297,1757315064.00,ACK
4298,1757320118.00,Data write: FF
4299,1757342656.00,ACK
4300,1757347642.00,Data write: F7
4301,1757370142.00,ACK
4302,1757375192.00,Data write: D7
4303,1757397674.00,ACK
4304,1757402692.00,Data write: FF
4305,1757425218.00,ACK
4306,1757430242.00,Data write: 80
4307,1757452746.00,ACK
4308,1757457716.00,Data write: BD
4309,1757480232.00,ACK
4310,1757485244.00,Data write: 23
4311,1757507736.00,ACK
4312,1757512718.00,Data write: 01
4313,1757535202.00,ACK
4314,1757540240.00,Data write: 89
4315,1757562750.00,ACK
4316,1757567742.00,Data write: 67
4317,1757590256.00,ACK
4318,1757595290.00,Data write: 80
4319,1757617804.00,ACK
4320,1757622790.00,Data write: B5
4321,1757645288.00,ACK
4322,1757650342.00,Data write: 00
4323,1757672834.00,ACK
4324,1757677814.00,Data write: F0
4325,1757700342.00,ACK
4326,1757705340.00,Data write: 01
4327,1757727842.00,ACK
4328,1757732812.00,Data write: F8
4329,1757755328.00,ACK
4330,1757760338.00,Data write: 80
4331,1757782828.00,ACK
4332,1757787812.00,Data write: BD
4333,1757810296.00,ACK
4334,1757815340.00,Data write: 70
4335,1757837844.00,ACK
4336,1757842814.00,Data write: 47
4337,1757865304.00,ACK
4338,1757870336.00,Data write: 80
4339,1757892848.00,ACK
4340,1757897836.00,Data write: B5
4341,1757920332.00,ACK
4342,1757925336.00,Data write: 00
4343,1757947838.00,ACK
4344,1757952810.00,Data write: F0
4345,1757975304.00,ACK
4346,1757980336.00,Data write: 09
4347,1758002828.00,ACK
4348,1758007808.00,Data write: F8
4349,1758030314.00,ACK
4350,1758035332.00,Data write: 80
4351,1758057816.00,ACK
4352,1758062808.00,Data write: BD
4353,1758085318.00,ACK
4354,1758090332.00,Data write: 80
4355,1758112840.00,ACK
4356,1758117806.00,Data write: B5
4357,1758140322.00,ACK
4358,1758145334.00,Data write: 00
4359,1758167830.00,ACK
4360,1758172806.00,Data write: F0
4361,1758195296.00,ACK
4362,1758200334.00,Data write: 06
4363,1758222846.00,ACK
4364,1758227830.00,Data write: F8
4365,1758250348.00,ACK
4366,1758255380.00,Data write: 80
4367,1758277896.00,ACK
4368,1758282880.00,Data write: BD
4369,1758305360.00,ACK
4370,1758310380.00,Data write: 80
4371,1758332888.00,ACK
4372,1758337878.00,Data write: B5
4373,1758360392.00,ACK
4374,1758365430.00,Data write: 00
4375,1758387920.00,ACK
4376,1758392904.00,Data write: F0
4377,1758415406.00,ACK
4378,1758420430.00,Data write: 64
4379,1758442914.00,ACK
4380,1758447902.00,Data write: F8
4381,1758470420.00,ACK
4382,1758475426.00,Data write: 80
4383,1758497928.00,ACK
4384,1758502902.00,Data write: BD
4385,1758525394.00,ACK
4386,1758530428.00,Data write: 70
4387,1758552942.00,ACK
4388,1758557928.00,Data write: 47
4389,1758580410.00,ACK
4390,1758585428.00,Data write: 70
4391,1758607938.00,ACK
4392,1758612926.00,Data write: B5
4393,1758635444.00,ACK
4394,1758640474.00,Data write: FF
4395,1758662968.00,ACK
4396,1758667924.00,Data write: F7
4397,1758690412.00,ACK
4398,1758695424.00,Data write: D3
4399,1758717944.00,ACK
4400,1758722922.00,Data write: FE
4401,1758745410.00,ACK
4402,1758750426.00,Data write: 00
4403,1758772962.00,ACK
4404,1758777926.00,Data write: 28
4405,1758800430.00,ACK
4406,1758805424.00,Data write: 01
4407,1758827938.00,ACK
4408,1758832922.00,Data write: D0
4409,1758855430.00,ACK
4410,1758860420.00,Data write: FF
4411,1758882940.00,ACK
4412,1758887922.00,Data write: F7
4413,1758910406.00,ACK
4414,1758915470.00,Data write: C5
4415,1758937958.00,ACK
4416,1758942970.00,Data write: FD
4417,1758965506.00,ACK
4418,1758970570.00,Data write: FF
4419,1758993054.00,ACK
4420,1758998070.00,Data write: F7
4421,1759020562.00,ACK
4422,1759025618.00,Data write: D3
4423,1759048114.00,ACK
4424,1759053118.00,Data write: FE
4425,1759075624.00,ACK
4426,1759080670.00,Data write: 00
4427,1759103174.00,ACK
4428,1759108170.00,Data write: 28
4429,1759130682.00,ACK
4430,1759135720.00,Data write: 53
4431,1759158210.00,ACK
4432,1759163216.00,Data write: D0
4433,1759185722.00,ACK
4434,1759190766.00,Data write: FF
4435,1759213272.00,ACK
4436,1759218266.00,Data write: F7
4437,1759240760.00,ACK
4438,1759245816.00,Data write: C5
4439,1759268346.00,ACK
4440,1759273316.00,Data write: FD
4441,1759295832.00,ACK
4442,1759300890.00,Data write: A5
4443,1759323404.00,ACK
4444,1759328418.00,Data write: 4D
4445,1759350930.00,ACK
4446,1759355992.00,Data write: 00
4447,1759378522.00,ACK
4448,1759383516.00,Data write: 26
4449,1759406008.00,ACK
4450,1759411066.00,Data write: 6E
4451,1759433556.00,ACK
4452,1759438566.00,Data write: 60
4453,1759461082.00,ACK
4454,1759466112.00,Data write: FF
4455,1759488608.00,ACK
4456,1759493612.00,Data write: F7
4457,1759516116.00,ACK
4458,1759521162.00,Data write: C0
4459,1759543644.00,ACK
4460,1759548612.00,Data write: FE
4461,1759571112.00,ACK
4462,1759576164.00,Data write: 04
4463,1759598682.00,ACK
4464,1759603688.00,Data write: 46
4465,1759626190.00,ACK
4466,1759631212.00,Data write: 28
4467,1759653698.00,ACK
4468,1759658712.00,Data write: 68
4469,1759681206.00,ACK
4470,1759686262.00,Data write: 02
4471,1759708756.00,ACK
4472,1759713762.00,Data write: 28
4473,1759736264.00,ACK
4474,1759741312.00,Data write: 06
4475,1759763790.00,ACK
4476,1759768784.00,Data write: D0
4477,1759791298.00,ACK
4478,1759796360.00,Data write: 01
4479,1759818848.00,ACK
4480,1759823860.00,Data write: 28
4481,1759846360.00,ACK
4482,1759851410.00,Data write: 17
4483,1759873928.00,ACK
4484,1759878906.00,Data write: D0
4485,1759901394.00,ACK
4486,1759907008.00,Data write: 00
4487,1759929526.00,ACK
4488,1759934508.00,Data write: 28
4489,1759957014.00,ACK
4490,1759962084.00,Data write: 44
4491,1759984564.00,ACK
4492,1759989556.00,Data write: D1
4493,1760012054.00,ACK
4494,1760017106.00,Data write: 6D
4495,1760039600.00,ACK
4496,1760044606.00,Data write: 2C
4497,1760067108.00,ACK
4498,1760072156.00,Data write: 1D
4499,1760094656.00,ACK
4500,1760099654.00,Data write: D0
4501,1760122164.00,ACK
4502,1760127206.00,Data write: 41
4503,1760149712.00,ACK
4504,1760154702.00,Data write: E0
4505,1760177198.00,ACK
4506,1760182252.00,Data write: A9
4507,1760204746.00,ACK
4508,1760209754.00,Data write: 68
4509,1760232258.00,ACK
4510,1760237304.00,Data write: 4A
4511,1760259790.00,ACK
4512,1760264804.00,Data write: 1C
4513,1760287298.00,ACK
4514,1760292350.00,Data write: AA
4515,1760314850.00,ACK
4516,1760319854.00,Data write: 60
4517,1760342354.00,ACK
4518,1760347400.00,Data write: AA
4519,1760369902.00,ACK
4520,1760374902.00,Data write: 48
4521,1760397412.00,ACK
4522,1760402502.00,Data write: 44
4523,1760425002.00,ACK
4524,1760430002.00,Data write: 54
4525,1760452486.00,ACK
4526,1760457552.00,Data write: 05
4527,1760480034.00,ACK
4528,1760485050.00,Data write: 29
4529,1760507564.00,ACK
4530,1760512600.00,Data write: 1B
4531,1760535094.00,ACK
4532,1760540098.00,Data write: D0
4533,1760562602.00,ACK
4534,1760567650.00,Data write: 03
4535,1760590132.00,ACK
4536,1760595150.00,Data write: 29
4537,1760617660.00,ACK
4538,1760622698.00,Data write: 24
4539,1760645214.00,ACK
4540,1760650196.00,Data write: D1
4541,1760672680.00,ACK
4542,1760677744.00,Data write: C1
4543,1760700270.00,ACK
4544,1760705272.00,Data write: 78
4545,1760727762.00,ACK
4546,1760732798.00,Data write: 53
4547,1760755292.00,ACK
4548,1760760296.00,Data write: 22
4549,1760782802.00,ACK
4550,1760787844.00,Data write: D2
4551,1760810332.00,ACK
4552,1760815346.00,Data write: 43
4553,1760837842.00,ACK
4554,1760842896.00,Data write: 53
4555,1760865372.00,ACK
4556,1760870370.00,Data write: 32
4557,1760892882.00,ACK
4558,1760897942.00,Data write: D2
4559,1760920452.00,ACK
4560,1760925466.00,Data write: B2
4561,1760947984.00,ACK
4562,1760953044.00,Data write: 4A
4563,1760975576.00,ACK
4564,1760980594.00,Data write: 40
4565,1761003086.00,ACK
4566,1761008140.00,Data write: 80
4567,1761030636.00,ACK
4568,1761035642.00,Data write: 78
4569,1761058148.00,ACK
4570,1761063190.00,Data write: 90
4571,1761085674.00,ACK
4572,1761090692.00,Data write: 42
4573,1761113204.00,ACK
4574,1761118266.00,Data write: 2D
4575,1761140778.00,ACK
4576,1761145788.00,Data write: D1
4577,1761168290.00,ACK
4578,1761173340.00,Data write: 2E
4579,1761195822.00,ACK
4580,1761200788.00,Data write: E0
4581,1761223292.00,ACK
4582,1761228340.00,Data write: 6D
4583,1761250840.00,ACK
4584,1761255840.00,Data write: 2C
4585,1761278346.00,ACK
4586,1761283390.00,Data write: 07
4587,1761305894.00,ACK
4588,1761310886.00,Data write: D0
4589,1761333380.00,ACK
4590,1761338436.00,Data write: AC
4591,1761360932.00,ACK
4592,1761365938.00,Data write: 2C
4593,1761388436.00,ACK
4594,1761393488.00,Data write: 28
4595,1761415966.00,ACK
4596,1761420960.00,Data write: D1
4597,1761443472.00,ACK
4598,1761448536.00,Data write: 02
4599,1761471024.00,ACK
4600,1761476036.00,Data write: 20
4601,1761498556.00,ACK
4602,1761503584.00,Data write: A8
4603,1761526106.00,ACK
4604,1761531086.00,Data write: 60
4605,1761553574.00,ACK
4606,1761558632.00,Data write: 9F
4607,1761581164.00,ACK
4608,1761586160.00,Data write: 49
4609,1761608650.00,ACK
4610,1761613682.00,Data write: AC
4611,1761636178.00,ACK
4612,1761641184.00,Data write: 22
4613,1761663688.00,ACK
4614,1761668734.00,Data write: 4A
4615,1761691218.00,ACK
4616,1761696234.00,Data write: 70
4617,1761718724.00,ACK
4618,1761723784.00,Data write: 23
4619,1761746276.00,ACK
4620,1761751280.00,Data write: E0
4621,1761773784.00,ACK
4622,1761778832.00,Data write: 01
4623,1761801338.00,ACK
4624,1761806332.00,Data write: 20
4625,1761828852.00,ACK
4626,1761833882.00,Data write: 28
4627,1761856360.00,ACK
4628,1761861356.00,Data write: 60
4629,1761883848.00,ACK
4630,1761888878.00,Data write: 9C
4631,1761911382.00,ACK
4632,1761916380.00,Data write: 48
4633,1761938892.00,ACK
4634,1761943956.00,Data write: 6D
4635,1761966448.00,ACK
4636,1761971454.00,Data write: 21
4637,1761993954.00,ACK
4638,1761998978.00,Data write: 01
4639,1762021464.00,ACK
4640,1762026478.00,Data write: 70
4641,1762048998.00,ACK
4642,1762054054.00,Data write: 70
4643,1762076572.00,ACK
4644,1762081576.00,Data write: BD
4645,1762104078.00,ACK
4646,1762109128.00,Data write: 01
4647,1762131632.00,ACK
4648,1762136626.00,Data write: 79
4649,1762159144.00,ACK
4650,1762164176.00,Data write: 40
4651,1762186692.00,ACK
4652,1762191676.00,Data write: 79
4653,1762214164.00,ACK
4654,1762219226.00,Data write: 00
4655,1762241722.00,ACK
4656,1762246726.00,Data write: 02
4657,1762269232.00,ACK
4658,1762274276.00,Data write: 08
4659,1762296762.00,ACK
4660,1762301774.00,Data write: 43
4661,1762324274.00,ACK
4662,1762329320.00,Data write: 81
4663,1762351804.00,ACK
4664,1762356774.00,Data write: 1E
4665,1762379274.00,ACK
4666,1762384324.00,Data write: 08
4667,1762406822.00,ACK
4668,1762411824.00,Data write: 30
4669,1762434336.00,ACK
4670,1762439370.00,Data write: E8
4671,1762461882.00,ACK
4672,1762466872.00,Data write: 60
4673,1762489366.00,ACK
4674,1762494422.00,Data write: 0C
4675,1762516916.00,ACK
4676,1762521922.00,Data write: 48
4677,1762544424.00,ACK
4678,1762549468.00,Data write: 81
4679,1762571948.00,ACK
4680,1762576946.00,Data write: 42
4681,1762599456.00,ACK
4682,1762604520.00,Data write: 12
4683,1762627002.00,ACK
4684,1762632018.00,Data write: D2
4685,1762654530.00,ACK
4686,1762659570.00,Data write: 13
4687,1762682080.00,ACK
4688,1762687066.00,Data write: E0
4689,1762709588.00,ACK
4690,1762714644.00,Data write: 07
4691,1762737178.00,ACK
4692,1762742168.00,Data write: 2A
4693,1762764666.00,ACK
4694,1762769718.00,Data write: 11
4695,1762792212.00,ACK
4696,1762797214.00,Data write: D3
4697,1762819716.00,ACK
4698,1762824764.00,Data write: EB
4699,1762847246.00,ACK
4700,1762852242.00,Data write: 68
4701,1762874754.00,ACK
4702,1762879814.00,Data write: 9A
4703,1762902300.00,ACK
4704,1762907416.00,Data write: 42
4705,1762929904.00,ACK
4706,1762935040.00,Data write: 0E
4707,1762957556.00,ACK
4708,1762962612.00,Data write: D1
4709,1762985104.00,ACK
4710,1762990214.00,Data write: 42
4711,1763012714.00,ACK
4712,1763017714.00,Data write: 18
4713,1763040198.00,ACK
4714,1763045262.00,Data write: F3
4715,1763067788.00,ACK
4716,1763072764.00,Data write: 43
4717,1763095276.00,ACK
4718,1763100336.00,Data write: D6
4719,1763122830.00,ACK
4720,1763127838.00,Data write: 5C
4721,1763150336.00,ACK
4722,1763155360.00,Data write: CA
4723,1763177842.00,ACK
4724,1763182836.00,Data write: 1F
4725,1763205350.00,ACK
4726,1763210412.00,Data write: 06
4727,1763232926.00,ACK
4728,1763237936.00,Data write: 21
4729,1763260456.00,ACK
4730,1763265508.00,Data write: FF
4731,1763288004.00,ACK
4732,1763293008.00,Data write: F7
4733,1763315516.00,ACK
4734,1763320560.00,Data write: 41
4735,1763343046.00,ACK
4736,1763348056.00,Data write: FD
4737,1763370576.00,ACK
4738,1763375634.00,Data write: 21
4739,1763398150.00,ACK
4740,1763403160.00,Data write: 02
4741,1763425658.00,ACK
4742,1763430708.00,Data write: 31
4743,1763453206.00,ACK
4744,1763458208.00,Data write: 43
4745,1763480694.00,ACK
4746,1763485754.00,Data write: 88
4747,1763508244.00,ACK
4748,1763513258.00,Data write: 42
4749,1763535774.00,ACK
4750,1763540832.00,Data write: 01
4751,1763563322.00,ACK
4752,1763568330.00,Data write: D1
4753,1763590832.00,ACK
4754,1763595856.00,Data write: 03
4755,1763618336.00,ACK
4756,1763623356.00,Data write: 20
4757,1763645866.00,ACK
4758,1763650930.00,Data write: 00
4759,1763673436.00,ACK
4760,1763678426.00,Data write: E0
4761,1763700944.00,ACK
4762,1763706004.00,Data write: 00
4763,1763728538.00,ACK
4764,1763733554.00,Data write: 20
4765,1763756046.00,ACK
4766,1763761104.00,Data write: 28
4767,1763783596.00,ACK
4768,1763788604.00,Data write: 60
4769,1763811106.00,ACK
4770,1763816154.00,Data write: 70
4771,1763838632.00,ACK
4772,1763843624.00,Data write: BD
4773,1763866140.00,ACK
4774,1763871202.00,Data write: 09
4775,1763893686.00,ACK
4776,1763898702.00,Data write: 02
4777,1763921218.00,ACK
4778,1763926252.00,Data write: 00
4779,1763948764.00,ACK
4780,1763953752.00,Data write: 00
4781,1763976270.00,ACK
4782,1763981326.00,Data write: 70
4783,1764003858.00,ACK
4784,1764008850.00,Data write: 47
4785,1764031348.00,ACK
4786,1764036400.00,Data write: 00
4787,1764058878.00,ACK
4788,1764063850.00,Data write: 00
4789,1764086362.00,ACK
4790,1764091422.00,Data write: F8
4791,1764113952.00,ACK
4792,1764118946.00,Data write: B5
4793,1764141432.00,ACK
4794,1764146498.00,Data write: 79
4795,1764168978.00,ACK
4796,1764173948.00,Data write: 4E
4797,1764196486.00,ACK
4798,1764201548.00,Data write: 30
4799,1764224034.00,ACK
4800,1764229048.00,Data write: 68
4801,1764251584.00,ACK
4802,1764256648.00,Data write: 0B
4803,1764279128.00,ACK
4804,1764284146.00,Data write: 24
4805,1764306638.00,ACK
4806,1764311696.00,Data write: 03
4807,1764334186.00,ACK
4808,1764339196.00,Data write: 28
4809,1764361694.00,ACK
4810,1764366746.00,Data write: 00
4811,1764389242.00,ACK
4812,1764394242.00,Data write: D0
4813,1764416752.00,ACK
4814,1764421816.00,Data write: D4
4815,1764444298.00,ACK
4816,1764449292.00,Data write: E0
4817,1764471800.00,ACK
4818,1764476840.00,Data write: 85
4819,1764499328.00,ACK
4820,1764504344.00,Data write: 4F
4821,1764526856.00,ACK
4822,1764531914.00,Data write: B8
4823,1764554426.00,ACK
4824,1764559442.00,Data write: 79
4825,1764581950.00,ACK
4826,1764587014.00,Data write: F9
4827,1764609538.00,ACK
4828,1764614542.00,Data write: 79
4829,1764637020.00,ACK
4830,1764642042.00,Data write: 12
4831,1764664546.00,ACK
4832,1764669542.00,Data write: 29
4833,1764692056.00,ACK
4834,1764697116.00,Data write: 12
4835,1764719606.00,ACK
4836,1764724612.00,Data write: D1
4837,1764747150.00,ACK
4838,1764752214.00,Data write: 39
4839,1764774698.00,ACK
4840,1764779714.00,Data write: 7A
4841,1764802206.00,ACK
4842,1764807238.00,Data write: 7A
4843,1764829734.00,ACK
4844,1764834738.00,Data write: 7A
4845,1764857242.00,ACK
4846,1764862288.00,Data write: 12
4847,1764884770.00,ACK
4848,1764889788.00,Data write: 02
4849,1764912316.00,ACK
4850,1764917338.00,Data write: 0A
4851,1764939840.00,ACK
4852,1764944836.00,Data write: 43
4853,1764967346.00,ACK
4854,1764972410.00,Data write: B9
4855,1764994894.00,ACK
4856,1764999910.00,Data write: 7A
4857,1765022426.00,ACK
4858,1765027486.00,Data write: 09
4859,1765049994.00,ACK
4860,1765055010.00,Data write: 04
4861,1765077524.00,ACK
4862,1765082586.00,Data write: 11
4863,1765105094.00,ACK
4864,1765110110.00,Data write: 43
4865,1765132622.00,ACK
4866,1765137682.00,Data write: FA
4867,1765160212.00,ACK
4868,1765165210.00,Data write: 7A
4869,1765187706.00,ACK
4870,1765192734.00,Data write: 14
4871,1765215232.00,ACK
4872,1765220232.00,Data write: 06
4873,1765242740.00,ACK
4874,1765247808.00,Data write: 0C
4875,1765270286.00,ACK
4876,1765275282.00,Data write: 43
4877,1765297790.00,ACK
4878,1765302832.00,Data write: 64
4879,1765325316.00,ACK
4880,1765330332.00,Data write: 49
4881,1765352842.00,ACK
4882,1765357906.00,Data write: 61
4883,1765380410.00,ACK
4884,1765385406.00,Data write: 18
4885,1765407918.00,ACK
4886,1765412980.00,Data write: 0B
4887,1765435504.00,ACK
4888,1765440504.00,Data write: 0B
4889,1765462990.00,ACK
4890,1765468030.00,Data write: 01
4891,1765490520.00,ACK
4892,1765495530.00,Data write: 21
4893,1765518030.00,ACK
4894,1765523078.00,Data write: 17
4895,1765545558.00,ACK
4896,1765550528.00,Data write: 5F
4897,1765573040.00,ACK
4898,1765579508.00,Stop
4899,1767551286.00,Start
4900,1767553922.00,Address write: 40
4901,1767571406.00,Write
4902,1767574320.00,ACK
4903,1767579550.00,Data write: 02
4904,1767601180.00,ACK
4905,1767606272.00,Data write: A5
4906,1767628168.00,ACK
4907,1767634702.00,Stop
4908,1768226152.00,Start
4909,1768228786.00,Address write: 40
4910,1768246272.00,Write
4911,1768249204.00,ACK
4912,1768254466.00,Data write: 00
4913,1768276126.00,ACK
4914,1768283126.00,Start repeat
4915,1768285722.00,Address read: 41
4916,1768303218.00,Read
4917,1768306694.00,ACK
4918,1768311590.00,Data read: 00
4919,1768331592.00,NACK
4920,1768338448.00,Stop
4921,1774299990.00,Start
4922,1774302624.00,Address write: 40
4923,1774320110.00,Write
4924,1774342416.00,ACK
4925,1774347700.00,Data write: 00
4926,1774380106.00,ACK
4927,1774387090.00,Start repeat
4928,1774389684.00,Address read: 41
4929,1774407180.00,Read
4930,1774416924.00,ACK
4931,1774421800.00,Data read: 02
4932,1774441806.00,NACK
4933,1774448608.00,Stop
4934,1780336380.00,Start
4935,1780339014.00,Address write: 40
4936,1780356498.00,Write
4937,1780364350.00,ACK
4938,1780369614.00,Data write: 00
4939,1780402036.00,ACK
4940,1780409054.00,Start repeat
4941,1780411648.00,Address read: 41
4942,1780429144.00,Read
4943,1780438852.00,ACK
4944,1780443762.00,Data read: 02
4945,1780463768.00,NACK
4946,1780470622.00,Stop
4947,1786136772.00,Start
4948,1786139406.00,Address write: 40
4949,1786156890.00,Write
4950,1786179566.00,ACK
4951,1786184830.00,Data write: 00
4952,1786217250.00,ACK
4953,1786224220.00,Start repeat
4954,1786226814.00,Address read: 41
4955,1786244310.00,Read
4956,1786254064.00,ACK
4957,1786258980.00,Data read: 02
4958,1786278986.00,NACK
4959,1786285740.00,Stop
4960,1792433132.00,Start
4961,1792435764.00,Address write: 40
4962,1792453250.00,Write
4963,1792456216.00,ACK
4964,1792461496.00,Data write: 00
4965,1792483122.00,ACK
4966,1792490132.00,Start repeat
4967,1792492728.00,Address read: 41
4968,1792510222.00,Read
4969,1792513714.00,ACK
4970,1792518644.00,Data read: 03
4971,1792538648.00,NACK
4972,1792545432.00,Stop
4973,1793179796.00,Start
4974,1793182430.00,Address write: 40
4975,1793199916.00,Write
4976,1793202872.00,ACK
4977,1793208134.00,Data write: 06
4978,1793229814.00,ACK
4979,1793236796.00,Start repeat
4980,1793239390.00,Address read: 41
4981,1793256886.00,Read
4982,1793260588.00,ACK
4983,1793265482.00,Data read: 0B
4984,1793285490.00,ACK
4985,1793290708.00,Data read: 00
4986,1793310710.00,NACK
4987,1793317416.00,Stop
4988,1793996710.00,Start
4989,1793999344.00,Address write: 40
4990,1794016828.00,Write
4991,1794019780.00,ACK
4992,1794025022.00,Data write: 20
4993,1794047144.00,ACK
4994,1794054108.00,Start repeat
4995,1794056704.00,Address read: 41
4996,1794074198.00,Read
4997,1794078570.00,ACK
4998,1794083470.00,Data read: 6D
4999,1794103478.00,ACK
5000,1794108720.00,Data read: AC
5001,1794128728.00,ACK
5002,1794133822.00,Data read: 01
5003,1794153826.00,ACK
5004,1794158996.00,Data read: 22
5005,1794179000.00,ACK
5006,1794184120.00,Data read: 03
5007,1794204126.00,ACK
5008,1794209296.00,Data read: 00
5009,1794229300.00,ACK
5010,1794234420.00,Data read: 01
5011,1794254426.00,ACK
5012,1794259594.00,Data read: 00
5013,1794279598.00,ACK
5014,1794284718.00,Data read: 00
5015,1794304724.00,ACK
5016,1794309894.00,Data read: 71
5017,1794329900.00,ACK
5018,1794335018.00,Data read: 02
5019,1794355020.00,NACK
5020,1794361724.00,Stop
5021,1795343764.00,Start
5022,1795346400.00,Address write: 40
5023,1795363884.00,Write
5024,1795366806.00,ACK
5025,1795372104.00,Data write: 02
5026,1795393748.00,ACK
5027,1795399102.00,Data write: 5A
5028,1795420800.00,ACK
5029,1795427284.00,Stop
5030,1796381224.00,Start
5031,1796383860.00,Address write: 40
5032,1796401344.00,Write
5033,1796404274.00,ACK
5034,1796409564.00,Data write: 00
5035,1796431196.00,ACK
5036,1796438150.00,Start repeat
5037,1796440744.00,Address read: 41
5038,1796458240.00,Read
5039,1796461748.00,ACK
5040,1796466636.00,Data read: 00
5041,1796486640.00,NACK
5042,1796493496.00,Stop
5043,1822467252.00,Start
5044,1822469886.00,Address write: 40
5045,1822487372.00,Write
5046,1822490342.00,ACK
5047,1822495616.00,Data write: 20
5048,1822517722.00,ACK
5049,1822522814.00,Data write: 6D
5050,1822545330.00,ACK
5051,1822550386.00,Data write: AC
5052,1822572904.00,ACK
5053,1822578014.00,Data write: 01
5054,1822600490.00,ACK
5055,1822605488.00,Data write: 22
5056,1822627998.00,ACK
5057,1822633062.00,Data write: 04
5058,1822655548.00,ACK
5059,1822660562.00,Data write: 00
5060,1822683076.00,ACK
5061,1822688110.00,Data write: 04
5062,1822710622.00,ACK
5063,1822715612.00,Data write: 02
5064,1822738128.00,ACK
5065,1822743186.00,Data write: 00
5066,1822765722.00,ACK
5067,1822770710.00,Data write: 28
5068,1822793206.00,ACK
5069,1822798260.00,Data write: 00
5070,1822820756.00,ACK
5071,1822825760.00,Data write: 00
5072,1822848264.00,ACK
5073,1822853310.00,Data write: 00
5074,1822875794.00,ACK
5075,1822880808.00,Data write: 22
5076,1822903296.00,ACK
5077,1822908384.00,Data write: 0F
5078,1822930866.00,ACK
5079,1822935884.00,Data write: 2B
5080,1822958390.00,ACK
5081,1822963458.00,Data write: 01
5082,1822985960.00,ACK
5083,1822990954.00,Data write: D3
5084,1823013468.00,ACK
5085,1823018506.00,Data write: 11
5086,1823040994.00,ACK
5087,1823046006.00,Data write: 46
5088,1823068520.00,ACK
5089,1823073580.00,Data write: FF
5090,1823096070.00,ACK
5091,1823101078.00,Data write: E7
5092,1823123580.00,ACK
5093,1823128606.00,Data write: 20
5094,1823151086.00,ACK
5095,1823156106.00,Data write: 38
5096,1823178618.00,ACK
5097,1823183680.00,Data write: 06
5098,1823206192.00,ACK
5099,1823211204.00,Data write: 28
5100,1823233696.00,ACK
5101,1823238754.00,Data write: 00
5102,1823261250.00,ACK
5103,1823266252.00,Data write: D9
5104,1823288760.00,ACK
5105,1823293800.00,Data write: B5
5106,1823316312.00,ACK
5107,1823321300.00,Data write: E0
5108,1823343820.00,ACK
5109,1823348874.00,Data write: C0
5110,1823371412.00,ACK
5111,1823376402.00,Data write: 46
5112,1823398880.00,ACK
5113,1823403902.00,Data write: 78
5114,1823426408.00,ACK
5115,1823431402.00,Data write: 44
5116,1823453882.00,ACK
5117,1823458900.00,Data write: 00
5118,1823481412.00,ACK
5119,1823486400.00,Data write: 79
5120,1823508902.00,ACK
5121,1823513950.00,Data write: 40
5122,1823536428.00,ACK
5123,1823541400.00,Data write: 00
5124,1823563890.00,ACK
5125,1823568946.00,Data write: 87
5126,1823591462.00,ACK
5127,1823596474.00,Data write: 44
5128,1823618974.00,ACK
5129,1823623998.00,Data write: 03
5130,1823646484.00,ACK
5131,1823651494.00,Data write: 83
5132,1823673986.00,ACK
5133,1823679044.00,Data write: 8D
5134,1823701534.00,ACK
5135,1823706548.00,Data write: 05
5136,1823729056.00,ACK
5137,1823734096.00,Data write: 24
5138,1823756580.00,ACK
5139,1823761596.00,Data write: 64
5140,1823784086.00,ACK
5141,1823789146.00,Data write: 03
5142,1823811634.00,ACK
5143,1823816646.00,Data write: 00
5144,1823839160.00,ACK
5145,1823844196.00,Data write: 00
5146,1823866706.00,ACK
5147,1823871696.00,Data write: 20
5148,1823894210.00,ACK
5149,1823899266.00,Data write: A6
5150,1823921800.00,ACK
5151,1823926792.00,Data write: E0
5152,1823949290.00,ACK
5153,1823954340.00,Data write: C8
5154,1823976836.00,ACK
5155,1823981840.00,Data write: B2
5156,1824004344.00,ACK
5157,1824009392.00,Data write: 01
5158,1824031874.00,ACK
5159,1824036868.00,Data write: 28
5160,1824059362.00,ACK
5161,1824064392.00,Data write: 00
5162,1824086888.00,ACK
5163,1824091890.00,Data write: D0
5164,1824114394.00,ACK
5165,1824119438.00,Data write: A1
5166,1824141922.00,ACK
5167,1824146938.00,Data write: E0
5168,1824169428.00,ACK
5169,1824174490.00,Data write: 38
5170,1824196976.00,ACK
5171,1824201990.00,Data write: 7C
5172,1824224502.00,ACK
5173,1824229564.00,Data write: 79
5174,1824252070.00,ACK
5175,1824257064.00,Data write: 7C
5176,1824279578.00,ACK
5177,1824284638.00,Data write: 09
5178,1824307170.00,ACK
5179,1824312188.00,Data write: 02
5180,1824334676.00,ACK
5181,1824339738.00,Data write: 01
5182,1824362224.00,ACK
5183,1824367238.00,Data write: 43
5184,1824389752.00,ACK
5185,1824394784.00,Data write: B8
5186,1824417278.00,ACK
5187,1824422288.00,Data write: 7C
5188,1824444784.00,ACK
5189,1824449836.00,Data write: 00
5190,1824472330.00,ACK
5191,1824477336.00,Data write: 04
5192,1824499840.00,ACK
5193,1824504886.00,Data write: 08
5194,1824527388.00,ACK
5195,1824532386.00,Data write: 43
5196,1824554896.00,ACK
5197,1824559956.00,Data write: F9
5198,1824582482.00,ACK
5199,1824587484.00,Data write: 7C
5200,1824609968.00,ACK
5201,1824615034.00,Data write: 0D
5202,1824637516.00,ACK
5203,1824642534.00,Data write: 06
5204,1824665046.00,ACK
5205,1824670084.00,Data write: 05
5206,1824692574.00,ACK
5207,1824697584.00,Data write: 43
5208,1824720086.00,ACK
5209,1824725132.00,Data write: 69
5210,1824747612.00,ACK
5211,1824752582.00,Data write: 0A
5212,1824775080.00,ACK
5213,1824780132.00,Data write: 01
5214,1824802650.00,ACK
5215,1824807656.00,Data write: 20
5216,1824830160.00,ACK
5217,1824835180.00,Data write: 40
5218,1824857666.00,ACK
5219,1824862682.00,Data write: 02
5220,1824885170.00,ACK
5221,1824890230.00,Data write: 00
5222,1824912720.00,ACK
5223,1824917730.00,Data write: 29
5224,1824940248.00,ACK
5225,1824945280.00,Data write: 00
5226,1824967776.00,ACK
5227,1824972776.00,Data write: D0
5228,1824995282.00,ACK
5229,1825000328.00,Data write: 05
5230,1825022812.00,ACK
5231,1825027828.00,Data write: 46
5232,1825050320.00,ACK
5233,1825055378.00,Data write: 39
5234,1825077866.00,ACK
5235,1825082878.00,Data write: 46
5236,1825105376.00,ACK
5237,1825110428.00,Data write: 10
5238,1825132924.00,ACK
5239,1825137928.00,Data write: 31
5240,1825160410.00,ACK
5241,1825165476.00,Data write: 20
5242,1825187954.00,ACK
5243,1825192952.00,Data write: 46
5244,1825215466.00,ACK
5245,1825220526.00,Data write: 2A
5246,1825243032.00,ACK
5247,1825248026.00,Data write: 46
5248,1825270540.00,ACK
5249,1825275572.00,Data write: FF
5250,1825298066.00,ACK
5251,1825303072.00,Data write: F7
5252,1825325574.00,ACK
5253,1825330620.00,Data write: 90
5254,1825353106.00,ACK
5255,1825358070.00,Data write: FD
5256,1825380572.00,ACK
5257,1825385624.00,Data write: 00
5258,1825408128.00,ACK
5259,1825413124.00,Data write: 20
5260,1825435640.00,ACK
5261,1825440670.00,Data write: F8
5262,1825463190.00,ACK
5263,1825468172.00,Data write: 71
5264,1825490658.00,ACK
5265,1825495722.00,Data write: 0A
5266,1825518208.00,ACK
5267,1825523222.00,Data write: 35
5268,1825545736.00,ACK
5269,1825550768.00,Data write: A8
5270,1825573264.00,ACK
5271,1825578268.00,Data write: B2
5272,1825600772.00,ACK
5273,1825605818.00,Data write: 89
5274,1825628302.00,ACK
5275,1825633316.00,Data write: E0
5276,1825655832.00,ACK
5277,1825660870.00,Data write: 01
5278,1825683380.00,ACK
5279,1825688368.00,Data write: 20
5280,1825710850.00,ACK
5281,1825715920.00,Data write: 00
5282,1825738442.00,ACK
5283,1825743444.00,Data write: 02
5284,1825765926.00,ACK
5285,1825770968.00,Data write: 02
5286,1825793456.00,ACK
5287,1825798468.00,Data write: 46
5288,1825821006.00,ACK
5289,1825826064.00,Data write: FF
5290,1825848556.00,ACK
5291,1825853566.00,Data write: 32
5292,1825876072.00,ACK
5293,1825881116.00,Data write: 22
5294,1825903602.00,ACK
5295,1825908666.00,Data write: 40
5296,1825931160.00,ACK
5297,1825936262.00,Data write: CB
5298,1825958754.00,ACK
5299,1825963812.00,Data write: B2
5300,1825986350.00,ACK
5301,1825991414.00,Data write: 04
5302,1826013924.00,ACK
5303,1826018940.00,Data write: 21
5304,1826041452.00,ACK
5305,1826046514.00,Data write: 01
5306,1826069028.00,ACK
5307,1826074038.00,Data write: 2B
5308,1826096542.00,ACK
5309,1826101562.00,Data write: 34
5310,1826124072.00,ACK
5311,1826129060.00,Data write: D1
5312,1826151562.00,ACK
5313,1826156612.00,Data write: 00
5314,1826179092.00,ACK
5315,1826184062.00,Data write: 2A
5316,1826206564.00,ACK
5317,1826211612.00,Data write: 32
5318,1826234116.00,ACK
5319,1826239110.00,Data write: D1
5320,1826261626.00,ACK
5321,1826266660.00,Data write: 79
5322,1826289176.00,ACK
5323,1826294160.00,Data write: 7C
5324,1826316646.00,ACK
5325,1826321710.00,Data write: 09
5326,1826344200.00,ACK
5327,1826349210.00,Data write: 02
5328,1826371712.00,ACK
5329,1826376760.00,Data write: 08
5330,1826399242.00,ACK
5331,1826404258.00,Data write: 40
5332,1826426752.00,ACK
5333,1826431808.00,Data write: 3A
5334,1826454304.00,ACK
5335,1826459308.00,Data write: 7C
5336,1826481814.00,ACK
5337,1826486856.00,Data write: 02
5338,1826509366.00,ACK
5339,1826514358.00,Data write: 43
5340,1826536876.00,ACK
5341,1826541930.00,Data write: B8
5342,1826564466.00,ACK
5343,1826569456.00,Data write: 7C
5344,1826591934.00,ACK
5345,1826596956.00,Data write: 00
5346,1826619464.00,ACK
5347,1826624456.00,Data write: 04
5348,1826646970.00,ACK
5349,1826652030.00,Data write: 08
5350,1826674524.00,ACK
5351,1826679530.00,Data write: 43
5352,1826702036.00,ACK
5353,1826707052.00,Data write: F9
5354,1826729542.00,ACK
5355,1826734554.00,Data write: 7C
5356,1826757054.00,ACK
5357,1826762104.00,Data write: 09
5358,1826784606.00,ACK
5359,1826789602.00,Data write: 06
5360,1826812116.00,ACK
5361,1826817152.00,Data write: 01
5362,1826839666.00,ACK
5363,1826844652.00,Data write: 43
5364,1826867136.00,ACK
5365,1826872202.00,Data write: 49
5366,1826894682.00,ACK
5367,1826899652.00,Data write: 0A
5368,1826922150.00,ACK
5369,1826927252.00,Data write: 48
5370,1826949766.00,ACK
5371,1826954826.00,Data write: 1C
5372,1826977334.00,ACK
5373,1826982450.00,Data write: 00
5374,1827004968.00,ACK
5375,1827009950.00,Data write: 2A
5376,1827032440.00,ACK
5377,1827037500.00,Data write: 00
5378,1827060014.00,ACK
5379,1827065022.00,Data write: D1
5380,1827087522.00,ACK
5381,1827092548.00,Data write: 08
5382,1827115028.00,ACK
5383,1827120024.00,Data write: 46
5384,1827142540.00,ACK
5385,1827147596.00,Data write: 85
5386,1827170110.00,ACK
5387,1827175120.00,Data write: B2
5388,1827197640.00,ACK
5389,1827202696.00,Data write: 00
5390,1827225186.00,ACK
5391,1827230196.00,Data write: 20
5392,1827252734.00,ACK
5393,1827257796.00,Data write: 06
5394,1827280284.00,ACK
5395,1827285296.00,Data write: 46
5396,1827307794.00,ACK
5397,1827312844.00,Data write: F1
5398,1827335340.00,ACK
5399,1827340342.00,Data write: B2
5400,1827362848.00,ACK
5401,1827367892.00,Data write: 8D
5402,1827390374.00,ACK
5403,1827395344.00,Data write: 42
5404,1827417840.00,ACK
5405,1827422894.00,Data write: 16
5406,1827445388.00,ACK
5407,1827450392.00,Data write: D9
5408,1827472892.00,ACK
5409,1827477944.00,Data write: 48
5410,1827500440.00,ACK
5411,1827505442.00,Data write: 02
5412,1827527926.00,ACK
5413,1827532992.00,Data write: 01
5414,1827555474.00,ACK
5415,1827560492.00,Data write: 19
5416,1827582982.00,ACK
5417,1827588040.00,Data write: 38
5418,1827610552.00,ACK
5419,1827615542.00,Data write: 48
5420,1827638060.00,ACK
5421,1827643116.00,Data write: 42
5422,1827665632.00,ACK
5423,1827670640.00,Data write: 1C
5424,1827693132.00,ACK
5425,1827698190.00,Data write: 04
5426,1827720680.00,ACK
5427,1827725690.00,Data write: 20
5428,1827748206.00,ACK
5429,1827753236.00,Data write: 91
5430,1827775752.00,ACK
5431,1827780738.00,Data write: 42
5432,1827803256.00,ACK
5433,1827808314.00,Data write: 0D
5434,1827830842.00,ACK
5435,1827835836.00,Data write: D8
5436,1827858334.00,ACK
5437,1827863388.00,Data write: 08
5438,1827885886.00,ACK
5439,1827890888.00,Data write: 46
5440,1827913394.00,ACK
5441,1827918512.00,Data write: 36
5442,1827941006.00,ACK
5443,1827946036.00,Data write: 4A
5444,1827968532.00,ACK
5445,1827973636.00,Data write: 10
5446,1827996144.00,ACK
5447,1828001136.00,Data write: 40
5448,1828023652.00,ACK
5449,1828028710.00,Data write: 03
5450,1828051206.00,ACK
5451,1828056210.00,Data write: 22
5452,1828078714.00,ACK
5453,1828083734.00,Data write: 11
5454,1828106264.00,ACK
5455,1828111284.00,Data write: 42
5456,1828133796.00,ACK
5457,1828138834.00,Data write: 00
5458,1828161344.00,ACK
5459,1828166332.00,Data write: D0
5460,1828188828.00,ACK
5461,1828193884.00,Data write: 01
5462,1828216378.00,ACK
5463,1828221382.00,Data write: 46
5464,1828243886.00,ACK
5465,1828248932.00,Data write: 08
5466,1828271418.00,ACK
5467,1828276432.00,Data write: 46
5468,1828298924.00,ACK
5469,1828303980.00,Data write: FF
5470,1828326470.00,ACK
5471,1828331478.00,Data write: F7
5472,1828353996.00,ACK
5473,1828359028.00,Data write: F7
5474,1828381548.00,ACK
5475,1828386528.00,Data write: FC
5476,1828409014.00,ACK
5477,1828414080.00,Data write: 76
5478,1828436604.00,ACK
5479,1828441604.00,Data write: 1C
5480,1828464092.00,ACK
5481,1828469126.00,Data write: FF
5482,1828491620.00,ACK
5483,1828496628.00,Data write: 21
5484,1828519162.00,ACK
5485,1828524228.00,Data write: 08
5486,1828546710.00,ACK
5487,1828551728.00,Data write: 42
5488,1828574256.00,ACK
5489,1828579300.00,Data write: E7
5490,1828601784.00,ACK
5491,1828606774.00,Data write: D0
5492,1828629292.00,ACK
5493,1828634326.00,Data write: 01
5494,1828656844.00,ACK
5495,1828661826.00,Data write: 21
5496,1828684310.00,ACK
5497,1828689374.00,Data write: F9
5498,1828711904.00,ACK
5499,1828716900.00,Data write: 71
5500,1828739392.00,ACK
5501,1828744422.00,Data write: C0
5502,1828766922.00,ACK
5503,1828771922.00,Data write: B2
5504,1828794430.00,ACK
5505,1828799500.00,Data write: 03
5506,1828821982.00,ACK
5507,1828826998.00,Data write: 21
5508,1828849536.00,ACK
5509,1828854598.00,Data write: 00
5510,1828877090.00,ACK
5511,1828882098.00,Data write: 28
5512,1828904584.00,ACK
5513,1828909674.00,Data write: 00
5514,1828932160.00,ACK
5515,1828937170.00,Data write: D1
5516,1828959672.00,ACK
5517,1828964722.00,Data write: 01
5518,1828987206.00,ACK
5519,1828992222.00,Data write: 46
5520,1829014720.00,ACK
5521,1829019772.00,Data write: 34
5522,1829042274.00,ACK
5523,1829047270.00,Data write: 4E
5524,1829069764.00,ACK
5525,1829074818.00,Data write: F9
5526,1829097316.00,ACK
5527,1829102320.00,Data write: 71
5528,1829124828.00,ACK
5529,1829129894.00,Data write: 48
5530,1829152382.00,ACK
5531,1829157392.00,Data write: E0
5532,1829179892.00,ACK
5533,1829184916.00,Data write: C8
5534,1829207402.00,ACK
5535,1829212416.00,Data write: B2
5536,1829234936.00,ACK
5537,1829239994.00,Data write: 04
5538,1829262510.00,ACK
5539,1829267518.00,Data write: 25
5540,1829290018.00,ACK
5541,1829295066.00,Data write: 01
5542,1829317570.00,ACK
5543,1829322568.00,Data write: 28
5544,1829345060.00,ACK
5545,1829350118.00,Data write: 17
5546,1829372612.00,ACK
5547,1829377614.00,Data write: D1
5548,1829400118.00,ACK
5549,1829405166.00,Data write: 38
5550,1829427652.00,ACK
5551,1829432666.00,Data write: 7C
5552,1829455164.00,ACK
5553,1829460216.00,Data write: 79
5554,1829482712.00,ACK
5555,1829487714.00,Data write: 7C
5556,1829510226.00,ACK
5557,1829515290.00,Data write: 09
5558,1829537796.00,ACK
5559,1829542814.00,Data write: 02
5560,1829565326.00,ACK
5561,1829570388.00,Data write: 01
5562,1829592920.00,ACK
5563,1829597912.00,Data write: 43
5564,1829620404.00,ACK
5565,1829625460.00,Data write: B8
5566,1829647950.00,ACK
5567,1829652962.00,Data write: 7C
5568,1829675460.00,ACK
5569,1829680512.00,Data write: 00
5570,1829703010.00,ACK
5571,1829708012.00,Data write: 04
5572,1829730512.00,ACK
5573,1829735562.00,Data write: 08
5574,1829758058.00,ACK
5575,1829763060.00,Data write: 43
5576,1829785542.00,ACK
5577,1829790608.00,Data write: F9
5578,1829813090.00,ACK
5579,1829818086.00,Data write: 7C
5580,1829840596.00,ACK
5581,1829845660.00,Data write: 0A
5582,1829868164.00,ACK
5583,1829873160.00,Data write: 06
5584,1829895670.00,ACK
5585,1829906106.00,Data write: 02
5586,1829928590.00,ACK
5587,1829933658.00,Data write: 43
5588,1829956178.00,ACK
5589,1829961308.00,Data write: 10
5590,1829983812.00,ACK
5591,1829988858.00,Data write: 19
5592,1830011340.00,ACK
5593,1830016406.00,Data write: 22
5594,1830038908.00,ACK
5595,1830043906.00,Data write: 49
5596,1830066390.00,ACK
5597,1830071456.00,Data write: 49
5598,1830093940.00,ACK
5599,1830098956.00,Data write: 1C
5600,1830121446.00,ACK
5601,1830126506.00,Data write: 05
5602,1830149020.00,ACK
5603,1830154004.00,Data write: 25
5604,1830176526.00,ACK
5605,1830181576.00,Data write: 88
5606,1830204096.00,ACK
5607,1830209104.00,Data write: 42
5608,1830231604.00,ACK
5609,1830236654.00,Data write: 07
5610,1830259132.00,ACK
5611,1830264102.00,Data write: D8
5612,1830286600.00,ACK
5613,1830291652.00,Data write: 00
5614,1830314170.00,ACK
5615,1830319178.00,Data write: 25
5616,1830341680.00,ACK
5617,1830346702.00,Data write: 20
5618,1830369184.00,ACK
5619,1830374202.00,Data write: 46
5620,1830396696.00,ACK
5621,1830401752.00,Data write: 29
5622,1830424242.00,ACK
5623,1830429252.00,Data write: 46
5624,1830451766.00,ACK
5625,1830456798.00,Data write: FF
5626,1830479292.00,ACK
5627,1830484298.00,Data write: F7
5628,1830506798.00,ACK
5629,1830511848.00,Data write: 8E
5630,1830534330.00,ACK
5631,1830539298.00,Data write: FC
5632,1830561794.00,ACK
5633,1830566850.00,Data write: 38
5634,1830589362.00,ACK
5635,1830594374.00,Data write: 74
5636,1830616888.00,ACK
5637,1830621948.00,Data write: 00
5638,1830644478.00,ACK
5639,1830649474.00,Data write: 0A
5640,1830671966.00,ACK
5641,1830676998.00,Data write: 78
5642,1830699494.00,ACK
5643,1830704498.00,Data write: 74
5644,1830726998.00,ACK
5645,1830732044.00,Data write: FD
5646,1830754528.00,ACK
5647,1830759546.00,Data write: 71
5648,1830782034.00,ACK
5649,1830787096.00,Data write: 0C
5650,1830809582.00,ACK
5651,1830814596.00,Data write: 20
5652,1830837110.00,ACK
5653,1830842170.00,Data write: 2A
5654,1830864678.00,ACK
5655,1830869692.00,Data write: E0
5656,1830892206.00,ACK
5657,1830897270.00,Data write: 0F
5658,1830919796.00,ACK
5659,1830924794.00,Data write: 20
5660,1830947286.00,ACK
5661,1830952344.00,Data write: 00
5662,1830974838.00,ACK
5663,1830979844.00,Data write: 02
5664,1831002344.00,ACK
5665,1831007390.00,Data write: FF
5666,1831029870.00,ACK
5667,1831034866.00,Data write: F7
5668,1831057356.00,ACK
5669,1831062390.00,Data write: C6
5670,1831084886.00,ACK
5671,1831089888.00,Data write: FC
5672,1831112392.00,ACK
5673,1831117442.00,Data write: 00
5674,1831139938.00,ACK
5675,1831144940.00,Data write: 24
5676,1831167446.00,ACK
5677,1831172488.00,Data write: FC
5678,1831194974.00,ACK
5679,1831199990.00,Data write: 71
5680,1831222500.00,ACK
5681,1831227564.00,Data write: 0A
5682,1831250068.00,ACK
5683,1831255064.00,Data write: 20
5684,1831277576.00,ACK
5685,1831282640.00,Data write: 00
5686,1831305166.00,ACK
5687,1831310160.00,Data write: F0
5688,1831332652.00,ACK
5689,1831337688.00,Data write: 43
5690,1831360180.00,ACK
5691,1831365186.00,Data write: F8
5692,1831387728.00,ACK
5693,1831392788.00,Data write: 25
5694,1831415274.00,ACK
5695,1831420284.00,Data write: E0
5696,1831442818.00,ACK
5697,1831447884.00,Data write: C8
5698,1831470368.00,ACK
5699,1831475358.00,Data write: B2
5700,1831497856.00,ACK
5701,1831502886.00,Data write: 04
5702,1831525364.00,ACK
5703,1831530360.00,Data write: 25
5704,1831552874.00,ACK
5705,1831557934.00,Data write: 01
5706,1831580440.00,ACK
5707,1831585434.00,Data write: 28
5708,1831607944.00,ACK
5709,1831612984.00,Data write: 17
5710,1831635472.00,ACK
5711,1831640480.00,Data write: D1
5712,1831662980.00,ACK
5713,1831668034.00,Data write: 39
5714,1831690512.00,ACK
5715,1831695484.00,Data write: 79
5716,1831717982.00,ACK
5717,1831723032.00,Data write: 78
5718,1831745550.00,ACK
5719,1831750558.00,Data write: 79
5720,1831773076.00,ACK
5721,1831778132.00,Data write: 00
5722,1831800666.00,ACK
5723,1831805682.00,Data write: 02
5724,1831828172.00,ACK
5725,1831833232.00,Data write: 08
5726,1831855722.00,ACK
5727,1831860730.00,Data write: 43
5728,1831883234.00,ACK
5729,1831888280.00,Data write: 0A
5730,1831910762.00,ACK
5731,1831915780.00,Data write: 38
5732,1831938274.00,ACK
5733,1831943380.00,Data write: 7F
5734,1831965870.00,ACK
5735,1831970930.00,Data write: 21
5736,1831993420.00,ACK
5737,1831998478.00,Data write: 49
5738,1832020986.00,ACK
5739,1832025978.00,Data write: 02
5740,1832048494.00,ACK
5741,1832053554.00,Data write: 01
5742,1832076064.00,ACK
5743,1832081078.00,Data write: 40
5744,1832103594.00,ACK
5745,1832108652.00,Data write: 4A
5746,1832131188.00,ACK
5747,1832136178.00,Data write: 0A
5748,1832158672.00,ACK
5749,1832163726.00,Data write: 01
5750,1832186222.00,ACK
5751,1832191226.00,Data write: 25
5752,1832213732.00,ACK
5753,1832218776.00,Data write: 69
5754,1832241260.00,ACK
5755,1832246276.00,Data write: 02
5756,1832268770.00,ACK
5757,1832273824.00,Data write: 00
5758,1832296320.00,ACK
5759,1832301324.00,Data write: 2A
5760,1832323832.00,ACK
5761,1832328874.00,Data write: 00
5762,1832351380.00,ACK
5763,1832356370.00,Data write: D0
5764,1832378888.00,ACK
5765,1832383948.00,Data write: 08
5766,1832406478.00,ACK
5767,1832411472.00,Data write: 46
5768,1832433968.00,ACK
5769,1832439020.00,Data write: 82
5770,1832461516.00,ACK
5771,1832466520.00,Data write: B2
5772,1832489022.00,ACK
5773,1832494072.00,Data write: 39
5774,1832516550.00,ACK
5775,1832521546.00,Data write: 46
5776,1832544054.00,ACK
5777,1832549122.00,Data write: 10
5778,1832571606.00,ACK
5779,1832576620.00,Data write: 31
5780,1832599136.00,ACK
5781,1832604170.00,Data write: 20
5782,1832626682.00,ACK
5783,1832631670.00,Data write: 46
5784,1832654148.00,ACK
5785,1832659166.00,Data write: FF
5786,1832681656.00,ACK
5787,1832686666.00,Data write: F7
5788,1832709164.00,ACK
5789,1832714218.00,Data write: 14
5790,1832736710.00,ACK
5791,1832741716.00,Data write: FD
5792,1832764238.00,ACK
5793,1832769264.00,Data write: C0
5794,1832791766.00,ACK
5795,1832796764.00,Data write: B2
5796,1832819274.00,ACK
5797,1832824342.00,Data write: 00
5798,1832846822.00,ACK
5799,1832851816.00,Data write: 28
5800,1832874330.00,ACK
5801,1832879366.00,Data write: 00
5802,1832901874.00,ACK
5803,1832907338.00,Data write: D1
5804,1832929856.00,ACK
5805,1832934966.00,Data write: 05
5806,1832957468.00,ACK
5807,1832962464.00,Data write: 46
5808,1832984974.00,ACK
5809,1832990062.00,Data write: FD
5810,1833012566.00,ACK
5811,1833017614.00,Data write: 71
5812,1833040110.00,ACK
5813,1833045164.00,Data write: 01
5814,1833067680.00,ACK
5815,1833072660.00,Data write: E0
5816,1833095146.00,ACK
5817,1833100214.00,Data write: 04
5818,1833122736.00,ACK
5819,1833127738.00,Data write: 20
5820,1833150222.00,ACK
5821,1833155260.00,Data write: F8
5822,1833177748.00,ACK
5823,1833182762.00,Data write: 71
5824,1833205294.00,ACK
5825,1833210362.00,Data write: 0A
5826,1833232840.00,ACK
5827,1833237836.00,Data write: 20
5828,1833260350.00,ACK
5829,1833265410.00,Data write: 00
5830,1833287904.00,ACK
5831,1833292908.00,Data write: F0
5832,1833315394.00,ACK
5833,1833320460.00,Data write: 1F
5834,1833342944.00,ACK
5835,1833347956.00,Data write: F8
5836,1833370454.00,ACK
5837,1833375508.00,Data write: 00
5838,1833398026.00,ACK
5839,1833403034.00,Data write: 20
5840,1833425534.00,ACK
5841,1833430558.00,Data write: 30
5842,1833453066.00,ACK
5843,1833458058.00,Data write: 60
5844,1833480574.00,ACK
5845,1833485632.00,Data write: 0B
5846,1833508122.00,ACK
5847,1833513132.00,Data write: 24
5848,1833535650.00,ACK
5849,1833540706.00,Data write: 20
5850,1833563220.00,ACK
5851,1833568232.00,Data write: 46
5852,1833590750.00,ACK
5853,1833595806.00,Data write: 01
5854,1833618340.00,ACK
5855,1833623352.00,Data write: B0
5856,1833645850.00,ACK
5857,1833650902.00,Data write: F0
5858,1833673396.00,ACK
5859,1833678402.00,Data write: BD
5860,1833700920.00,ACK
5861,1833705952.00,Data write: C0
5862,1833728450.00,ACK
5863,1833733454.00,Data write: 46
5864,1833755956.00,ACK
5865,1833761004.00,Data write: 00
5866,1833783484.00,ACK
5867,1833788450.00,Data write: F0
5868,1833810952.00,ACK
5869,1833816000.00,Data write: FF
5870,1833838502.00,ACK
5871,1833843498.00,Data write: FF
5872,1833866010.00,ACK
5873,1833871050.00,Data write: FF
5874,1833893552.00,ACK
5875,1833898550.00,Data write: FF
5876,1833921036.00,ACK
5877,1833926102.00,Data write: 00
5878,1833948586.00,ACK
5879,1833953602.00,Data write: 00
5880,1833976112.00,ACK
5881,1833981150.00,Data write: 00
5882,1834003640.00,ACK
5883,1834008648.00,Data write: FE
5884,1834031148.00,ACK
5885,1834036196.00,Data write: FF
5886,1834058700.00,ACK
5887,1834063696.00,Data write: FF
5888,1834086208.00,ACK
5889,1834091248.00,Data write: 06
5890,1834113758.00,ACK
5891,1834118748.00,Data write: 48
5892,1834141264.00,ACK
5893,1834146324.00,Data write: 00
5894,1834168856.00,ACK
5895,1834173848.00,Data write: 21
5896,1834196344.00,ACK
5897,1834201398.00,Data write: 01
5898,1834223894.00,ACK
5899,1834228896.00,Data write: 60
5900,1834251398.00,ACK
5901,1834256446.00,Data write: 06
5902,1834278926.00,ACK
5903,1834283922.00,Data write: 4A
5904,1834306434.00,ACK
5905,1834311496.00,Data write: 13
5906,1834333980.00,ACK
5907,1834338994.00,Data write: 4B
5908,1834361504.00,ACK
5909,1834366546.00,Data write: 02
5910,1834389054.00,ACK
5911,1834394042.00,Data write: E0
5912,1834416562.00,ACK
5913,1834421618.00,Data write: 19
5914,1834444156.00,ACK
5915,1834449144.00,Data write: 70
5916,1834471622.00,ACK
5917,1834476642.00,Data write: 5B
5918,1834499152.00,ACK
5919,1834504144.00,Data write: 1C
5920,1834526660.00,ACK
5921,1834531718.00,Data write: 52
5922,1834554204.00,ACK
5923,1834559218.00,Data write: 1E
5924,1834581752.00,ACK
5925,1834586816.00,Data write: 00
5926,1834609300.00,ACK
5927,1834614316.00,Data write: 2A
5928,1834636806.00,ACK
5929,1834641838.00,Data write: FA
5930,1834664330.00,ACK
5931,1834669338.00,Data write: D1
5932,1834691836.00,ACK
5933,1834696890.00,Data write: 00
5934,1834719406.00,ACK
5935,1834724414.00,Data write: 21
5936,1834746914.00,ACK
5937,1834751936.00,Data write: 81
5938,1834774444.00,ACK
5939,1834779440.00,Data write: 60
5940,1834801950.00,ACK
5941,1834807014.00,Data write: 70
5942,1834829500.00,ACK
5943,1834834514.00,Data write: 47
5944,1834857026.00,ACK
5945,1834862088.00,Data write: 00
5946,1834884592.00,ACK
5947,1834889588.00,Data write: 00
5948,1834912098.00,ACK
5949,1834917212.00,Data write: 00
5950,1834939710.00,ACK
5951,1834944736.00,Data write: 20
5952,1834967238.00,ACK
5953,1834972336.00,Data write: 12
5954,1834994850.00,ACK
5955,1834999836.00,Data write: 02
5956,1835022354.00,ACK
5957,1835027410.00,Data write: 00
5958,1835049902.00,ACK
5959,1835054910.00,Data write: 00
5960,1835077408.00,ACK
5961,1835082432.00,Data write: B0
5962,1835104936.00,ACK
5963,1835109932.00,Data write: B5
5964,1835132442.00,ACK
5965,1835137508.00,Data write: 04
5966,1835159994.00,ACK
5967,1835165008.00,Data write: 46
5968,1835187522.00,ACK
5969,1835192584.00,Data write: 0B
5970,1835215094.00,ACK
5971,1835220108.00,Data write: 4D
5972,1835242622.00,ACK
5973,1835247682.00,Data write: 28
5974,1835270212.00,ACK
5975,1835275206.00,Data write: 71
5976,1835297696.00,ACK
5977,1835302732.00,Data write: 00
5978,1835325226.00,ACK
5979,1835330232.00,Data write: 0A
5980,1835352734.00,ACK
5981,1835357780.00,Data write: 68
5982,1835380264.00,ACK
5983,1835385280.00,Data write: 71
5984,1835407776.00,ACK
5985,1835412830.00,Data write: 06
5986,1835435326.00,ACK
5987,1835440330.00,Data write: 21
5988,1835462836.00,ACK
5989,1835467904.00,Data write: 28
5990,1835490406.00,ACK
5991,1835495404.00,Data write: 46
5992,1835517914.00,ACK
5993,1835522978.00,Data write: 22
5994,1835545508.00,ACK
5995,1835550504.00,Data write: 46
5996,1835572996.00,ACK
5997,1835578026.00,Data write: FF
5998,1835600526.00,ACK
5999,1835605524.00,Data write: F7
6000,1835628036.00,ACK
6001,1835633102.00,Data write: 31
6002,1835655584.00,ACK
6003,1835660598.00,Data write: FC
6004,1835683134.00,ACK
6005,1835688202.00,Data write: 29
6006,1835710684.00,ACK
6007,1835715700.00,Data write: 19
6008,1835738190.00,ACK
6009,1835743222.00,Data write: 88
6010,1835765720.00,ACK
6011,1835770724.00,Data write: 71
6012,1835793228.00,ACK
6013,1835798274.00,Data write: 00
6014,1835820758.00,ACK
6015,1835825774.00,Data write: 0A
6016,1835848304.00,ACK
6017,1835853320.00,Data write: C8
6018,1835875828.00,ACK
6019,1835880824.00,Data write: 71
6020,1835903336.00,ACK
6021,1835908422.00,Data write: 08
6022,1835930904.00,ACK
6023,1835935922.00,Data write: 34
6024,1835958434.00,ACK
6025,1835963522.00,Data write: 04
6026,1835986004.00,ACK
6027,1835991020.00,Data write: E0
6028,1836013532.00,ACK
6029,1836018596.00,Data write: 28
6030,1836041126.00,ACK
6031,1836046120.00,Data write: 78
6032,1836068634.00,ACK
6033,1836073692.00,Data write: FF
6034,1836096202.00,ACK
6035,1836101218.00,Data write: F7
6036,1836123712.00,ACK
6037,1836128770.00,Data write: 2E
6038,1836151260.00,ACK
6039,1836156268.00,Data write: FE
6040,1836178788.00,ACK
6041,1836183820.00,Data write: 6D
6042,1836206310.00,ACK
6043,1836211318.00,Data write: 1C
6044,1836233810.00,ACK
6045,1836238868.00,Data write: 64
6046,1836261356.00,ACK
6047,1836266368.00,Data write: 1E
6048,1836288884.00,ACK
6049,1836293918.00,Data write: 20
6050,1836316430.00,ACK
6051,1836321418.00,Data write: 04
6052,1836343900.00,ACK
6053,1836348964.00,Data write: F8
6054,1836371490.00,ACK
6055,1836376488.00,Data write: D1
6056,1836398974.00,ACK
6057,1836404014.00,Data write: B0
6058,1836426500.00,ACK
6059,1836431514.00,Data write: BD
6060,1836454046.00,ACK
6061,1836459086.00,Data write: C0
6062,1836481570.00,ACK
6063,1836486566.00,Data write: 46
6064,1836509078.00,ACK
6065,1836514114.00,Data write: 14
6066,1836536608.00,ACK
6067,1836541614.00,Data write: 00
6068,1836564112.00,ACK
6069,1836569164.00,Data write: 00
6070,1836591662.00,ACK
6071,1836596664.00,Data write: 20
6072,1836619166.00,ACK
6073,1836624210.00,Data write: 80
6074,1836646716.00,ACK
6075,1836651710.00,Data write: B5
6076,1836674206.00,ACK
6077,1836679262.00,Data write: 00
6078,1836701758.00,ACK
6079,1836706758.00,Data write: F0
6080,1836729268.00,ACK
6081,1836734312.00,Data write: 05
6082,1836756794.00,ACK
6083,1836761808.00,Data write: F8
6084,1836784304.00,ACK
6085,1836789358.00,Data write: 80
6086,1836811850.00,ACK
6087,1836816856.00,Data write: BD
6088,1836839376.00,ACK
6089,1836844406.00,Data write: 80
6090,1836866922.00,ACK
6091,1836871906.00,Data write: B5
6092,1836894386.00,ACK
6093,1836899410.00,Data write: 00
6094,1836921892.00,ACK
6095,1836926906.00,Data write: F0
6096,1836949398.00,ACK
6097,1836954458.00,Data write: 60
6098,1836976948.00,ACK
6099,1836981960.00,Data write: 40
6100,1837004456.00,ACK
6101,1837010912.00,Stop
6102,1839002916.00,Start
6103,1839005550.00,Address write: 40
6104,1839023036.00,Write
6105,1839025960.00,ACK
6106,1839031180.00,Data write: 02
6107,1839052818.00,ACK
6108,1839057926.00,Data write: A5
6109,1839079786.00,ACK
6110,1839086282.00,Stop
6111,1839659156.00,Start
6112,1839661790.00,Address write: 40
6113,1839679276.00,Write
6114,1839682210.00,ACK
6115,1839687470.00,Data write: 00
6116,1839709132.00,ACK
6117,1839716132.00,Start repeat
6118,1839718728.00,Address read: 41
6119,1839736222.00,Read
6120,1839739702.00,ACK
6121,1839744618.00,Data read: 00
6122,1839764622.00,NACK
6123,1839771478.00,Stop
6124,1845923818.00,Start
6125,1845926452.00,Address write: 40
6126,1845943936.00,Write
6127,1845963522.00,ACK
6128,1845968826.00,Data write: 00
6129,1846001206.00,ACK
6130,1846008216.00,Start repeat
6131,1846010810.00,Address read: 41
6132,1846028306.00,Read
6133,1846038022.00,ACK
6134,1846042950.00,Data read: 02
6135,1846062956.00,NACK
6136,1846069786.00,Stop
6137,1851699160.00,Start
6138,1851701794.00,Address write: 40
6139,1851719280.00,Write
6140,1851743890.00,ACK
6141,1851749168.00,Data write: 00
6142,1851781578.00,ACK
6143,1851788584.00,Start repeat
6144,1851791178.00,Address read: 41
6145,1851808674.00,Read
6146,1851818392.00,ACK
6147,1851823292.00,Data read: 02
6148,1851843298.00,NACK
6149,1851850102.00,Stop
6150,1857743374.00,Start
6151,1857746008.00,Address write: 40
6152,1857763492.00,Write
6153,1857766446.00,ACK
6154,1857771712.00,Data write: 00
6155,1857803872.00,ACK
6156,1857810898.00,Start repeat
6157,1857813492.00,Address read: 41
6158,1857830988.00,Read
6159,1857840684.00,ACK
6160,1857845582.00,Data read: 02
6161,1857865588.00,NACK
6162,1857872366.00,Stop
6163,1863736612.00,Start
6164,1863739248.00,Address write: 40
6165,1863756732.00,Write
6166,1863759686.00,ACK
6167,1863765002.00,Data write: 00
6168,1863786652.00,ACK
6169,1863793662.00,Start repeat
6170,1863796258.00,Address read: 41
6171,1863813752.00,Read
6172,1863817238.00,ACK
6173,1863822124.00,Data read: 03
6174,1863842128.00,NACK
6175,1863848914.00,Stop
6176,1864433552.00,Start
6177,1864436188.00,Address write: 40
6178,1864453672.00,Write
6179,1864456622.00,ACK
6180,1864461892.00,Data write: 06
6181,1864483520.00,ACK
6182,1864490502.00,Start repeat
6183,1864493098.00,Address read: 41
6184,1864510592.00,Read
6185,1864514298.00,ACK
6186,1864519214.00,Data read: 0B
6187,1864539220.00,ACK
6188,1864544416.00,Data read: 00
6189,1864564416.00,NACK
6190,1864571124.00,Stop
6191,1865275290.00,Start
6192,1865277924.00,Address write: 40
6193,1865295410.00,Write
6194,1865298354.00,ACK
6195,1865303654.00,Data write: 20
6196,1865325796.00,ACK
6197,1865332790.00,Start repeat
6198,1865335386.00,Address read: 41
6199,1865352880.00,Read
6200,1865357240.00,ACK
6201,1865362152.00,Data read: 6D
6202,1865382160.00,ACK
6203,1865387450.00,Data read: AC
6204,1865407458.00,ACK
6205,1865412602.00,Data read: 01
6206,1865432608.00,ACK
6207,1865437778.00,Data read: 22
6208,1865457782.00,ACK
6209,1865462902.00,Data read: 04
6210,1865482906.00,ACK
6211,1865488076.00,Data read: 00
6212,1865508082.00,ACK
6213,1865513202.00,Data read: 01
6214,1865533206.00,ACK
6215,1865538376.00,Data read: 00
6216,1865558380.00,ACK
6217,1865563500.00,Data read: 00
6218,1865583506.00,ACK
6219,1865588672.00,Data read: AD
6220,1865608680.00,ACK
6221,1865613800.00,Data read: 32
6222,1865633802.00,NACK
6223,1865640506.00,Stop
6224,1866539122.00,Start
6225,1866541756.00,Address write: 40
6226,1866559242.00,Write
6227,1866562166.00,ACK
6228,1866567460.00,Data write: 02
6229,1866589088.00,ACK
6230,1866594186.00,Data write: 5A
6231,1866615894.00,ACK
6232,1866622392.00,Stop
6233,1867559132.00,Start
6234,1867561768.00,Address write: 40
6235,1867579252.00,Write
6236,1867582166.00,ACK
6237,1867587472.00,Data write: 00
6238,1867609108.00,ACK
6239,1867616058.00,Start repeat
6240,1867618654.00,Address read: 41
6241,1867636148.00,Read
6242,1867639638.00,ACK
6243,1867644570.00,Data read: 00
6244,1867664572.00,NACK
6245,1867671356.00,Stop
6246,1893734884.00,Start
6247,1893737518.00,Address write: 40
6248,1893755004.00,Write
6249,1893757928.00,ACK
6250,1893763198.00,Data write: 20
6251,1893785310.00,ACK
6252,1893790396.00,Data write: 6D
6253,1893812904.00,ACK
6254,1893817968.00,Data write: AC
6255,1893840456.00,ACK
6256,1893845546.00,Data write: 01
6257,1893868050.00,ACK
6258,1893873070.00,Data write: 22
6259,1893895562.00,ACK
6260,1893905566.00,Data write: 05
6261,1893928104.00,ACK
6262,1893933194.00,Data write: 00
6263,1893955694.00,ACK
6264,1893960794.00,Data write: 04
6265,1893983284.00,ACK
6266,1893988292.00,Data write: 02
6267,1894010790.00,ACK
6268,1894015792.00,Data write: 00
6269,1894038300.00,ACK
6270,1894043292.00,Data write: 2A
6271,1894065806.00,ACK
6272,1894070842.00,Data write: 00
6273,1894093350.00,ACK
6274,1894098392.00,Data write: 00
6275,1894120878.00,ACK
6276,1894125890.00,Data write: 02
6277,1894148406.00,ACK
6278,1894153388.00,Data write: F8
6279,1894175872.00,ACK
6280,1894180888.00,Data write: 80
6281,1894203398.00,ACK
6282,1894208386.00,Data write: BD
6283,1894230906.00,ACK
6284,1894235940.00,Data write: 70
6285,1894258432.00,ACK
6286,1894263464.00,Data write: 47
6287,1894285958.00,ACK
6288,1894290990.00,Data write: 70
6289,1894313508.00,ACK
6290,1894318488.00,Data write: 47
6291,1894340974.00,ACK
6292,1894345986.00,Data write: 80
6293,1894368484.00,ACK
6294,1894373484.00,Data write: B5
6295,1894395972.00,ACK
6296,1894400988.00,Data write: 00
6297,1894423504.00,ACK
6298,1894428484.00,Data write: F0
6299,1894450970.00,ACK
6300,1894455986.00,Data write: 01
6301,1894478498.00,ACK
6302,1894483482.00,Data write: F8
6303,1894505984.00,ACK
6304,1894510982.00,Data write: 80
6305,1894533472.00,ACK
6306,1894538482.00,Data write: BD
6307,1894561000.00,ACK
6308,1894566034.00,Data write: 70
6309,1894588548.00,ACK
6310,1894593586.00,Data write: 47
6311,1894616076.00,ACK
6312,1894621082.00,Data write: 80
6313,1894643582.00,ACK
6314,1894648582.00,Data write: B5
6315,1894671070.00,ACK
6316,1894676084.00,Data write: 00
6317,1894698598.00,ACK
6318,1894703580.00,Data write: F0
6319,1894726064.00,ACK
6320,1894731082.00,Data write: 01
6321,1894753590.00,ACK
6322,1894758580.00,Data write: F8
6323,1894781098.00,ACK
6324,1894786128.00,Data write: 80
6325,1894808628.00,ACK
6326,1894813654.00,Data write: BD
6327,1894836162.00,ACK
6328,1894841180.00,Data write: 70
6329,1894863716.00,ACK
6330,1894868756.00,Data write: 47
6331,1894891248.00,ACK
6332,1894896278.00,Data write: 80
6333,1894918760.00,ACK
6334,1894923776.00,Data write: B5
6335,1894946270.00,ACK
6336,1894951278.00,Data write: 00
6337,1894973782.00,ACK
6338,1894978776.00,Data write: F0
6339,1895001292.00,ACK
6340,1895006328.00,Data write: 01
6341,1895028822.00,ACK
6342,1895033850.00,Data write: F8
6343,1895056338.00,ACK
6344,1895061374.00,Data write: 80
6345,1895083888.00,ACK
6346,1895088874.00,Data write: BD
6347,1895111378.00,ACK
6348,1895116378.00,Data write: 70
6349,1895138888.00,ACK
6350,1895143876.00,Data write: 47
6351,1895166356.00,ACK
6352,1895171374.00,Data write: 80
6353,1895193864.00,ACK
6354,1895198874.00,Data write: B5
6355,1895221370.00,ACK
6356,1895226376.00,Data write: 00
6357,1895248880.00,ACK
6358,1895253872.00,Data write: F0
6359,1895276368.00,ACK
6360,1895281374.00,Data write: 05
6361,1895303858.00,ACK
6362,1895308872.00,Data write: F8
6363,1895331368.00,ACK
6364,1895336370.00,Data write: 80
6365,1895358882.00,ACK
6366,1895363870.00,Data write: BD
6367,1895386372.00,ACK
6368,1895391370.00,Data write: 80
6369,1895413862.00,ACK
6370,1895418870.00,Data write: B5
6371,1895441372.00,ACK
6372,1895446372.00,Data write: 00
6373,1895468880.00,ACK
6374,1895473870.00,Data write: F0
6375,1895496352.00,ACK
6376,1895501372.00,Data write: 02
6377,1895523864.00,ACK
6378,1895528868.00,Data write: F8
6379,1895551352.00,ACK
6380,1895556368.00,Data write: 80
6381,1895578880.00,ACK
6382,1895583868.00,Data write: BD
6383,1895606388.00,ACK
6384,1895611420.00,Data write: 70
6385,1895633924.00,ACK
6386,1895638944.00,Data write: 47
6387,1895661436.00,ACK
6388,1895666468.00,Data write: 70
6389,1895688966.00,ACK
6390,1895693968.00,Data write: 47
6391,1895716470.00,ACK
6392,1895721466.00,Data write: 80
6393,1895743980.00,ACK
6394,1895748964.00,Data write: B5
6395,1895771450.00,ACK
6396,1895776466.00,Data write: FF
6397,1895798960.00,ACK
6398,1895803964.00,Data write: F7
6399,1895826450.00,ACK
6400,1895831466.00,Data write: 44
6401,1895853976.00,ACK
6402,1895858964.00,Data write: FE
6403,1895881444.00,ACK
6404,1895886464.00,Data write: FF
6405,1895908980.00,ACK
6406,1895914012.00,Data write: F7
6407,1895936530.00,ACK
6408,1895941566.00,Data write: 1B
6409,1895964058.00,ACK
6410,1895969062.00,Data write: FE
6411,1895991570.00,ACK
6412,1895996612.00,Data write: FF
6413,1896019122.00,ACK
6414,1896024160.00,Data write: F7
6415,1896046674.00,ACK
6416,1896051738.00,Data write: 36
6417,1896074224.00,ACK
6418,1896079260.00,Data write: FE
6419,1896101776.00,ACK
6420,1896106836.00,Data write: FE
6421,1896129346.00,ACK
6422,1896134360.00,Data write: E7
6423,1896156856.00,ACK
6424,1896161912.00,Data write: 02
6425,1896184410.00,ACK
6426,1896189434.00,Data write: E0
6427,1896211940.00,ACK
6428,1896216962.00,Data write: 08
6429,1896239468.00,ACK
6430,1896244508.00,Data write: C8
6431,1896267024.00,ACK
6432,1896272060.00,Data write: 12
6433,1896294558.00,ACK
6434,1896299560.00,Data write: 1F
6435,1896322068.00,ACK
6436,1896327134.00,Data write: 08
6437,1896349638.00,ACK
6438,1896354656.00,Data write: C1
6439,1896377168.00,ACK
6440,1896382234.00,Data write: 00
6441,1896404764.00,ACK
6442,1896409758.00,Data write: 2A
6443,1896432254.00,ACK
6444,1896437306.00,Data write: FA
6445,1896459804.00,ACK
6446,1896464830.00,Data write: D1
6447,1896487330.00,ACK
6448,1896492356.00,Data write: 70
6449,1896514862.00,ACK
6450,1896519856.00,Data write: 47
6451,1896542374.00,ACK
6452,1896547432.00,Data write: 70
6453,1896569926.00,ACK
6454,1896574956.00,Data write: 47
6455,1896597454.00,ACK
6456,1896602506.00,Data write: 00
6457,1896625006.00,ACK
6458,1896630030.00,Data write: 20
6459,1896652536.00,ACK
6460,1896657554.00,Data write: 01
6461,1896680046.00,ACK
6462,1896685052.00,Data write: E0
6463,1896707534.00,ACK
6464,1896712554.00,Data write: 01
6465,1896735064.00,ACK
6466,1896740102.00,Data write: C1
6467,1896762616.00,ACK
6468,1896767652.00,Data write: 12
6469,1896790142.00,ACK
6470,1896795154.00,Data write: 1F
6471,1896817648.00,ACK
6472,1896822702.00,Data write: 00
6473,1896845182.00,ACK
6474,1896850202.00,Data write: 2A
6475,1896872712.00,ACK
6476,1896877750.00,Data write: FB
6477,1896900262.00,ACK
6478,1896905298.00,Data write: D1
6479,1896927792.00,ACK
6480,1896932900.00,Data write: 70
6481,1896955408.00,ACK
6482,1896960500.00,Data write: 47
6483,1896983004.00,ACK
6484,1896988050.00,Data write: 78
6485,1897010552.00,ACK
6486,1897015550.00,Data write: 0A
6487,1897038038.00,ACK
6488,1897043100.00,Data write: 00
6489,1897065608.00,ACK
6490,1897070648.00,Data write: 00
6491,1897093156.00,ACK
6492,1897098224.00,Data write: 00
6493,1897120704.00,ACK
6494,1897125722.00,Data write: 00
6495,1897148212.00,ACK
6496,1897153248.00,Data write: 00
6497,1897175742.00,ACK
6498,1897180748.00,Data write: 20
6499,1897203252.00,ACK
6500,1897208296.00,Data write: 28
6501,1897230778.00,ACK
6502,1897235796.00,Data write: 06
6503,1897258328.00,ACK
6504,1897263346.00,Data write: 00
6505,1897285856.00,ACK
6506,1897290896.00,Data write: 00
6507,1897313400.00,ACK
6508,1897318446.00,Data write: 5A
6509,1897340930.00,ACK
6510,1897345946.00,Data write: 0A
6511,1897368458.00,ACK
6512,1897373520.00,Data write: 00
6513,1897396028.00,ACK
6514,1897401094.00,Data write: 00
6515,1897423574.00,ACK
6516,1897428618.00,Data write: 28
6517,1897451124.00,ACK
6518,1897456144.00,Data write: 06
6519,1897478632.00,ACK
6520,1897483694.00,Data write: 00
6521,1897506176.00,ACK
6522,1897511218.00,Data write: 00
6523,1897533700.00,ACK
6524,1897538742.00,Data write: 5A
6525,1897561228.00,ACK
6526,1897566242.00,Data write: 0A
6527,1897588738.00,ACK
6528,1897593792.00,Data write: 00
6529,1897616286.00,ACK
6530,1897621316.00,Data write: 28
6531,1897643816.00,ACK
6532,1897648840.00,Data write: 06
6533,1897671368.00,ACK
6534,1897676390.00,Data write: 00
6535,1897698894.00,ACK
6536,1897703940.00,Data write: 20
6537,1897726442.00,ACK
6538,1897731436.00,Data write: D5
6539,1897753930.00,ACK
6540,1897758990.00,Data write: 00
6541,1897781480.00,ACK
6542,1897786514.00,Data write: 00
6543,1897809008.00,ACK
6544,1897814038.00,Data write: 00
6545,1897836538.00,ACK
6546,1897841536.00,Data write: EB
6547,1897864048.00,ACK
6548,1897869112.00,Data write: 00
6549,1897891596.00,ACK
6550,1897896638.00,Data write: 00
6551,1897919122.00,ACK
6552,1897924186.00,Data write: 00
6553,1897946692.00,ACK
6554,1897951736.00,Data write: 69
6555,1897974222.00,ACK
6556,1897979286.00,Data write: 06
6557,1898001812.00,ACK
6558,1898006836.00,Data write: 00
6559,1898029340.00,ACK
6560,1898034386.00,Data write: 00
6561,1898056874.00,ACK
6562,1898061910.00,Data write: 00
6563,1898084426.00,ACK
6564,1898089484.00,Data write: 00
6565,1898111974.00,ACK
6566,1898117008.00,Data write: 00
6567,1898139528.00,ACK
6568,1898144584.00,Data write: 00
6569,1898167080.00,ACK
6570,1898172108.00,Data write: 00
6571,1898194596.00,ACK
6572,1898199632.00,Data write: 00
6573,1898222126.00,ACK
6574,1898227132.00,Data write: 00
6575,1898249626.00,ACK
6576,1898254682.00,Data write: 00
6577,1898277196.00,ACK
6578,1898282232.00,Data write: 00
6579,1898304722.00,ACK
6580,1898309782.00,Data write: 00
6581,1898332274.00,ACK
6582,1898337306.00,Data write: 00
6583,1898359824.00,ACK
6584,1898364880.00,Data write: 00
6585,1898387374.00,ACK
6586,1898392406.00,Data write: 00
6587,1898414922.00,ACK
6588,1898419980.00,Data write: 00
6589,1898442496.00,ACK
6590,1898447530.00,Data write: 00
6591,1898470028.00,ACK
6592,1898475078.00,Data write: 00
6593,1898497556.00,ACK
6594,1898502578.00,Data write: 00
6595,1898525104.00,ACK
6596,1898530128.00,Data write: 00
6597,1898552632.00,ACK
6598,1898557628.00,Data write: 00
6599,1898580138.00,ACK
6600,1898585202.00,Data write: 00
6601,1898607690.00,ACK
6602,1898612726.00,Data write: 00
6603,1898635220.00,ACK
6604,1898640276.00,Data write: 00
6605,1898662796.00,ACK
6606,1898667826.00,Data write: 00
6607,1898690322.00,ACK
6608,1898695376.00,Data write: 00
6609,1898717914.00,ACK
6610,1898722926.00,Data write: 00
6611,1898745418.00,ACK
6612,1898750476.00,Data write: 00
6613,1898772970.00,ACK
6614,1898778000.00,Data write: 00
6615,1898800504.00,ACK
6616,1898805524.00,Data write: 00
6617,1898828034.00,ACK
6618,1898833070.00,Data write: EF
6619,1898855586.00,ACK
6620,1898860624.00,Data write: 00
6621,1898883114.00,ACK
6622,1898888124.00,Data write: 00
6623,1898910622.00,ACK
6624,1898915672.00,Data write: 00
6625,1898938172.00,ACK
6626,1898943198.00,Data write: 00
6627,1898965702.00,ACK
6628,1898970722.00,Data write: 00
6629,1898993206.00,ACK
6630,1898998222.00,Data write: 00
6631,1899020716.00,ACK
6632,1899025770.00,Data write: 00
6633,1899048266.00,ACK
6634,1899053296.00,Data write: 00
6635,1899075814.00,ACK
6636,1899080870.00,Data write: 00
6637,1899103384.00,ACK
6638,1899108420.00,Data write: 00
6639,1899130938.00,ACK
6640,1899135994.00,Data write: 00
6641,1899158488.00,ACK
6642,1899163516.00,Data write: F1
6643,1899186038.00,ACK
6644,1899191094.00,Data write: 00
6645,1899213586.00,ACK
6646,1899218618.00,Data write: 00
6647,1899241134.00,ACK
6648,1899246194.00,Data write: 00
6649,1899268702.00,ACK
6650,1899273718.00,Data write: 1D
6651,1899296214.00,ACK
6652,1899301268.00,Data write: 0A
6653,1899323746.00,ACK
6654,1899328766.00,Data write: 00
6655,1899351294.00,ACK
6656,1899356316.00,Data write: 00
6657,1899378822.00,ACK
6658,1899383864.00,Data write: F5
6659,1899406370.00,ACK
6660,1899411416.00,Data write: 09
6661,1899433896.00,ACK
6662,1899438916.00,Data write: 00
6663,1899461426.00,ACK
6664,1899466490.00,Data write: 00
6665,1899488996.00,ACK
6666,1899494012.00,Data write: FD
6667,1899516528.00,ACK
6668,1899521590.00,Data write: 09
6669,1899544118.00,ACK
6670,1899549114.00,Data write: 00
6671,1899571608.00,ACK
6672,1899576664.00,Data write: 00
6673,1899599160.00,ACK
6674,1899604188.00,Data write: 00
6675,1899626688.00,ACK
6676,1899631712.00,Data write: 00
6677,1899654220.00,ACK
6678,1899659262.00,Data write: 00
6679,1899681766.00,ACK
6680,1899686812.00,Data write: 00
6681,1899709294.00,ACK
6682,1899714310.00,Data write: 00
6683,1899736822.00,ACK
6684,1899741886.00,Data write: 00
6685,1899764394.00,ACK
6686,1899769410.00,Data write: 00
6687,1899791920.00,ACK
6688,1899796984.00,Data write: 00
6689,1899819510.00,ACK
6690,1899824510.00,Data write: 00
6691,1899846998.00,ACK
6692,1899852060.00,Data write: 00
6693,1899874552.00,ACK
6694,1899879584.00,Data write: 00
6695,1899902078.00,ACK
6696,1899907108.00,Data write: 00
6697,1899929606.00,ACK
6698,1899934608.00,Data write: 35
6699,1899957116.00,ACK
6700,1899962182.00,Data write: 01
6701,1899984666.00,ACK
6702,1899989708.00,Data write: 00
6703,1900012216.00,ACK
6704,1900017282.00,Data write: 00
6705,1900039806.00,ACK
6706,1900044806.00,Data write: 00
6707,1900067316.00,ACK
6708,1900072382.00,Data write: 00
6709,1900094888.00,ACK
6710,1900099906.00,Data write: 00
6711,1900122420.00,ACK
6712,1900127480.00,Data write: 00
6713,1900150010.00,ACK
6714,1900155004.00,Data write: 00
6715,1900177498.00,ACK
6716,1900182554.00,Data write: 00
6717,1900205052.00,ACK
6718,1900210104.00,Data write: 00
6719,1900232584.00,ACK
6720,1900237604.00,Data write: 00
6721,1900260114.00,ACK
6722,1900265150.00,Data write: EB
6723,1900287664.00,ACK
6724,1900292702.00,Data write: 06
6725,1900315192.00,ACK
6726,1900320202.00,Data write: 00
6727,1900342720.00,ACK
6728,1900347778.00,Data write: 00
6729,1900370296.00,ACK
6730,1900375300.00,Data write: F3
6731,1900397802.00,ACK
6732,1900402876.00,Data write: 06
6733,1900425396.00,ACK
6734,1900430402.00,Data write: 00
6735,1900452886.00,ACK
6736,1900457950.00,Data write: 00
6737,1900480436.00,ACK
6738,1900485500.00,Data write: 13
6739,1900508004.00,ACK
6740,1900513050.00,Data write: 0A
6741,1900535554.00,ACK
6742,1900540600.00,Data write: 00
6743,1900563104.00,ACK
6744,1900568150.00,Data write: 00
6745,1900590656.00,ACK
6746,1900595698.00,Data write: 00
6747,1900618182.00,ACK
6748,1900623248.00,Data write: 00
6749,1900645770.00,ACK
6750,1900650798.00,Data write: 00
6751,1900673278.00,ACK
6752,1900678298.00,Data write: 00
6753,1900700808.00,ACK
6754,1900705848.00,Data write: 00
6755,1900728358.00,ACK
6756,1900733396.00,Data write: 00
6757,1900755886.00,ACK
6758,1900760896.00,Data write: 00
6759,1900783392.00,ACK
6760,1900788446.00,Data write: 00
6761,1900810944.00,ACK
6762,1900815994.00,Data write: 00
6763,1900838474.00,ACK
6764,1900843494.00,Data write: 00
6765,1900866024.00,ACK
6766,1900871044.00,Data write: 00
6767,1900893554.00,ACK
6768,1900898594.00,Data write: 00
6769,1900921104.00,ACK
6770,1900926144.00,Data write: 41
6771,1900948636.00,ACK
6772,1900953694.00,Data write: 01
6773,1900976186.00,ACK
6774,1900981192.00,Data write: 00
6775,1901003550.00,ACK
6776,1901008592.00,Data write: 00
6777,1901031074.00,ACK
6778,1901036092.00,Data write: 49
6779,1901058626.00,ACK
6780,1901063692.00,Data write: 01
6781,1901086176.00,ACK
6782,1901091192.00,Data write: 00
6783,1901113726.00,ACK
6784,1901118790.00,Data write: 00
6785,1901141274.00,ACK
6786,1901146290.00,Data write: 00
6787,1901168782.00,ACK
6788,1901173840.00,Data write: 00
6789,1901196332.00,ACK
6790,1901201390.00,Data write: 00
6791,1901223882.00,ACK
6792,1901228940.00,Data write: 00
6793,1901251436.00,ACK
6794,1901256490.00,Data write: 00
6795,1901279006.00,ACK
6796,1901284064.00,Data write: 00
6797,1901306596.00,ACK
6798,1901311638.00,Data write: 00
6799,1901334142.00,ACK
6800,1901339188.00,Data write: 00
6801,1901361690.00,ACK
6802,1901366688.00,Data write: 61
6803,1901389198.00,ACK
6804,1901394262.00,Data write: 06
6805,1901416788.00,ACK
6806,1901421786.00,Data write: 00
6807,1901444272.00,ACK
6808,1901449336.00,Data write: 00
6809,1901471820.00,ACK
6810,1901476886.00,Data write: 00
6811,1901499390.00,ACK
6812,1901504436.00,Data write: 00
6813,1901526940.00,ACK
6814,1901531984.00,Data write: 00
6815,1901554488.00,ACK
6816,1901559534.00,Data write: 00
6817,1901582036.00,ACK
6818,1901587084.00,Data write: 00
6819,1901609568.00,ACK
6820,1901614634.00,Data write: 00
6821,1901637156.00,ACK
6822,1901642184.00,Data write: 00
6823,1901664666.00,ACK
6824,1901669732.00,Data write: 00
6825,1901692214.00,ACK
6826,1901697232.00,Data write: 00
6827,1901719746.00,ACK
6828,1901724782.00,Data write: 00
6829,1901747276.00,ACK
6830,1901752282.00,Data write: 00
6831,1901774784.00,ACK
6832,1901779832.00,Data write: 00
6833,1901802310.00,ACK
6834,1901807328.00,Data write: E1
6835,1901829842.00,ACK
6836,1901834880.00,Data write: 06
6837,1901857396.00,ACK
6838,1901862430.00,Data write: 00
6839,1901884928.00,ACK
6840,1901889980.00,Data write: 00
6841,1901912480.00,ACK
6842,1901917480.00,Data write: 09
6843,1901939970.00,ACK
6844,1901945028.00,Data write: 0A
6845,1901967522.00,ACK
6846,1901972578.00,Data write: 00
6847,1901995092.00,ACK
6848,1902000154.00,Data write: 00
6849,1902022642.00,ACK
6850,1902027678.00,Data write: 2D
6851,1902050170.00,ACK
6852,1902055228.00,Data write: 01
6853,1902077722.00,ACK
6854,1902082778.00,Data write: 00
6855,1902105290.00,ACK
6856,1902110352.00,Data write: 00
6857,1902132862.00,ACK
6858,1902137876.00,Data write: 00
6859,1902160390.00,ACK
6860,1902165450.00,Data write: 00
6861,1902187982.00,ACK
6862,1902193026.00,Data write: 00
6863,1902215510.00,ACK
6864,1902220576.00,Data write: 00
6865,1902243060.00,ACK
6866,1902248076.00,Data write: 27
6867,1902270586.00,ACK
6868,1902275650.00,Data write: 0A
6869,1902298138.00,ACK
6870,1902303174.00,Data write: 00
6871,1902325686.00,ACK
6872,1902330748.00,Data write: 00
6873,1902353236.00,ACK
6874,1902358274.00,Data write: 2F
6875,1902380784.00,ACK
6876,1902385848.00,Data write: 0A
6877,1902408356.00,ACK
6878,1902413372.00,Data write: 00
6879,1902435862.00,ACK
6880,1902440922.00,Data write: 00
6881,1902463410.00,ACK
6882,1902468468.00,Data write: FB
6883,1902490980.00,ACK
6884,1902496046.00,Data write: 06
6885,1902518572.00,ACK
6886,1902523572.00,Data write: 00
6887,1902546082.00,ACK
6888,1902551146.00,Data write: 00
6889,1902573652.00,ACK
6890,1902578670.00,Data write: 00
6891,1902601174.00,ACK
6892,1902606220.00,Data write: 00
6893,1902628720.00,ACK
6894,1902633770.00,Data write: 00
6895,1902656266.00,ACK
6896,1902661318.00,Data write: 00
6897,1902683834.00,ACK
6898,1902688868.00,Data write: 29
6899,1902711382.00,ACK
6900,1902716442.00,Data write: 02
6901,1902738930.00,ACK
6902,1902743968.00,Data write: 00
6903,1902766480.00,ACK
6904,1902771542.00,Data write: 00
6905,1902794048.00,ACK
6906,1902799066.00,Data write: 51
6907,1902821556.00,ACK
6908,1902826616.00,Data write: 01
6909,1902849104.00,ACK
6910,1902854166.00,Data write: 00
6911,1902876670.00,ACK
6912,1902881716.00,Data write: 00
6913,1902904222.00,ACK
6914,1902909240.00,Data write: 03
6915,1902931732.00,ACK
6916,1902936764.00,Data write: 48
6917,1902959278.00,ACK
6918,1902964312.00,Data write: 85
6919,1902986804.00,ACK
6920,1902991864.00,Data write: 46
6921,1903014352.00,ACK
6922,1903019364.00,Data write: 00
6923,1903041858.00,ACK
6924,1903046910.00,Data write: F0
6925,1903069404.00,ACK
6926,1903074462.00,Data write: 20
6927,1903096950.00,ACK
6928,1903102010.00,Data write: F8
6929,1903124496.00,ACK
6930,1903129562.00,Data write: 00
6931,1903152066.00,ACK
6932,1903157112.00,Data write: 48
6933,1903179618.00,ACK
6934,1903184662.00,Data write: 00
6935,1903207166.00,ACK
6936,1903212212.00,Data write: 47
6937,1903234714.00,ACK
6938,1903239760.00,Data write: 3B
6939,1903262244.00,ACK
6940,1903267310.00,Data write: 0A
6941,1903289834.00,ACK
6942,1903294860.00,Data write: 00
6943,1903317346.00,ACK
6944,1903322410.00,Data write: 00
6945,1903344898.00,ACK
6946,1903349960.00,Data write: 28
6947,1903372472.00,ACK
6948,1903377534.00,Data write: 06
6949,1903400068.00,ACK
6950,1903405158.00,Data write: 00
6951,1903427640.00,ACK
6952,1903432658.00,Data write: 20
6953,1903455190.00,ACK
6954,1903460258.00,Data write: 08
6955,1903482742.00,ACK
6956,1903487806.00,Data write: 48
6957,1903510314.00,ACK
6958,1903515356.00,Data write: 09
6959,1903537888.00,ACK
6960,1903542956.00,Data write: 4A
6961,1903565462.00,ACK
6962,1903570456.00,Data write: 00
6963,1903592970.00,ACK
6964,1903598030.00,Data write: 21
6965,1903620522.00,ACK
6966,1903625556.00,Data write: 00
6967,1903648054.00,ACK
6968,1903653102.00,Data write: A1
6969,1903675606.00,ACK
6970,1903680652.00,Data write: 81
6971,1903703138.00,ACK
6972,1903708204.00,Data write: 42
6973,1903730730.00,ACK
6974,1903735754.00,Data write: 00
6975,1903758238.00,ACK
6976,1903763300.00,Data write: D9
6977,1903785790.00,ACK
6978,1903790852.00,Data write: 02
6979,1903813366.00,ACK
6980,1903818428.00,Data write: 44
6981,1903840964.00,ACK
6982,1903846002.00,Data write: 07
6983,1903868512.00,ACK
6984,1903873552.00,Data write: 48
6985,1903896064.00,ACK
6986,1903905048.00,Data write: 02
6987,1903927566.00,ACK
6988,1903932626.00,Data write: 60
6989,1903955158.00,ACK
6990,1903960200.00,Data write: 07
6991,1903982686.00,ACK
6992,1903987750.00,Data write: 48
6993,1904010256.00,ACK
6994,1904015250.00,Data write: 00
6995,1904037764.00,ACK
6996,1904042824.00,Data write: 47
6997,1904065338.00,ACK
6998,1904070346.00,Data write: FE
6999,1904092848.00,ACK
7000,1904097896.00,Data write: E7
7001,1904120378.00,ACK
7002,1904125396.00,Data write: FE
7003,1904147886.00,ACK
7004,1904152944.00,Data write: E7
7005,1904175432.00,ACK
7006,1904180444.00,Data write: FE
7007,1904202962.00,ACK
7008,1904208020.00,Data write: E7
7009,1904230530.00,ACK
7010,1904235544.00,Data write: FE
7011,1904258064.00,ACK
7012,1904263118.00,Data write: E7
7013,1904285658.00,ACK
7014,1904290694.00,Data write: FE
7015,1904313192.00,ACK
7016,1904318242.00,Data write: E7
7017,1904340744.00,ACK
7018,1904345742.00,Data write: FE
7019,1904368254.00,ACK
7020,1904373318.00,Data write: E7
7021,1904395806.00,ACK
7022,1904400844.00,Data write: 00
7023,1904423358.00,ACK
7024,1904428418.00,Data write: 00
7025,1904450908.00,ACK
7026,1904455944.00,Data write: 00
7027,1904478458.00,ACK
7028,1904483518.00,Data write: 00
7029,1904506028.00,ACK
7030,1904511042.00,Data write: 00
7031,1904533540.00,ACK
7032,1904538592.00,Data write: 20
7033,1904561086.00,ACK
7034,1904566142.00,Data write: 00
7035,1904588656.00,ACK
7036,1904593716.00,Data write: 00
7037,1904616246.00,ACK
7038,1904621242.00,Data write: 00
7039,1904643754.00,ACK
7040,1904648816.00,Data write: 00
7041,1904671326.00,ACK
7042,1904676340.00,Data write: 08
7043,1904698854.00,ACK
7044,1904703912.00,Data write: ED
7045,1904726446.00,ACK
7046,1904731490.00,Data write: 00
7047,1904753976.00,ACK
7048,1904759036.00,Data write: E0
7049,1904781530.00,ACK
7050,1904786536.00,Data write: C1
7051,1904809058.00,ACK
7052,1904814114.00,Data write: 00
7053,1904836606.00,ACK
7054,1904841638.00,Data write: 00
7055,1904864158.00,ACK
7056,1904869212.00,Data write: 00
7057,1904891706.00,ACK
7058,1904896736.00,Data write: 06
7059,1904919216.00,ACK
7060,1904924238.00,Data write: 4C
7061,1904946722.00,ACK
7062,1904951736.00,Data write: 01
7063,1904974228.00,ACK
7064,1904979286.00,Data write: 25
7065,1905001652.00,ACK
7066,1905006686.00,Data write: 06
7067,1905029198.00,ACK
7068,1905034236.00,Data write: 4E
7069,1905056744.00,ACK
7070,1905061784.00,Data write: 05
7071,1905084290.00,ACK
7072,1905089332.00,Data write: E0
7073,1905111814.00,ACK
7074,1905116832.00,Data write: E3
7075,1905139318.00,ACK
7076,1905144384.00,Data write: 68
7077,1905166864.00,ACK
7078,1905171934.00,Data write: 07
7079,1905194412.00,ACK
7080,1905199430.00,Data write: CC
7081,1905221942.00,ACK
7082,1905226982.00,Data write: 2B
7083,1905249468.00,ACK
7084,1905254532.00,Data write: 43
