Id,Time[ns],0:I²C: Address/Data
1,100000112.00,Start
2,100010230.00,Address write: 40
3,100080226.00,Write
4,100090226.00,ACK
5,100102974.00,Data write: 00
6,100182974.00,ACK
7,100203084.00,Start repeat
8,100213176.00,Address read: 41
9,100283172.00,Read
10,100293172.00,ACK
11,100305670.00,Data read: 00
12,100385670.00,NACK
13,100405496.00,Stop
14,101300594.00,Start
15,101310712.00,Address write: 40
16,101380708.00,Write
17,101390708.00,ACK
18,101403404.00,Data write: 20
19,101483406.00,ACK
20,101496054.00,Data write: 6D
21,101576054.00,ACK
22,101588650.00,Data write: AC
23,101668654.00,ACK
24,101681226.00,Data write: 01
25,101761226.00,ACK
26,101773850.00,Data write: 20
27,101853850.00,ACK
28,101866422.00,Data write: 00
29,101946424.00,ACK
30,101959046.00,Data write: 00
31,102039048.00,ACK
32,102051620.00,Data write: 00
33,102131622.00,ACK
34,102144244.00,Data write: 00
35,102224246.00,ACK
36,102236818.00,Data write: 38
37,102316820.00,ACK
38,102329440.00,Data write: 84
39,102409442.00,ACK
40,102429042.00,Stop
41,103377364.00,Start
42,103387482.00,Address write: 40
43,103457478.00,Write
44,103467478.00,ACK
45,103480124.00,Data write: 02
46,103560126.00,ACK
47,103572722.00,Data write: A5
48,103652724.00,ACK
49,103672424.00,Stop
50,104380950.00,Start
51,104391068.00,Address write: 40
52,104461064.00,Write
53,104471064.00,ACK
54,104483762.00,Data write: 00
55,104563762.00,ACK
56,104583922.00,Start repeat
57,104594014.00,Address read: 41
58,104664010.00,Read
59,104674010.00,ACK
60,104686508.00,Data read: 03
61,104766508.00,NACK
62,104786334.00,Stop
63,105466834.00,Start
64,105476954.00,Address write: 40
65,105546948.00,Write
66,105556948.00,ACK
67,105569596.00,Data write: 06
68,105649596.00,ACK
69,105669706.00,Start repeat
70,105679800.00,Address read: 41
71,105749794.00,Read
72,105759794.00,ACK
73,105772242.00,Data read: 0E
74,105852244.00,ACK
75,105864892.00,Data read: 00
76,105944892.00,NACK
77,105964718.00,Stop
78,106629392.00,Start
79,106639512.00,Address write: 40
80,106709508.00,Write
81,106719506.00,ACK
82,106732178.00,Data write: 20
83,106812180.00,ACK
84,106832264.00,Start repeat
85,106842358.00,Address read: 41
86,106912352.00,Read
87,106922354.00,ACK
88,106934850.00,Data read: 6D
89,107014854.00,ACK
90,107027472.00,Data read: AC
91,107107476.00,ACK
92,107120172.00,Data read: 01
93,107200176.00,ACK
94,107212772.00,Data read: 20
95,107292774.00,ACK
96,107305444.00,Data read: 00
97,107385448.00,ACK
98,107398044.00,Data read: 00
99,107478046.00,ACK
100,107490718.00,Data read: 04
101,107570720.00,ACK
102,107583316.00,Data read: 00
103,107663318.00,ACK
104,107675966.00,Data read: 00
105,107755966.00,ACK
106,107768564.00,Data read: 01
107,107848566.00,ACK
108,107861162.00,Data read: 00
109,107941166.00,ACK
110,107953760.00,Data read: 02
111,108033764.00,ACK
112,108046434.00,Data read: 1B
113,108126438.00,ACK
114,108139058.00,Data read: 53
115,108219060.00,NACK
116,108238886.00,Stop
117,109305854.00,Start
118,109315974.00,Address write: 40
119,109385970.00,Write
120,109395968.00,ACK
121,109408642.00,Data write: 02
122,109488642.00,ACK
123,109501240.00,Data write: 5A
124,109581242.00,ACK
125,109600914.00,Stop
126,811681972.00,Start
127,811692092.00,Address write: 40
128,811762086.00,Write
129,811772086.00,ACK
130,811790904.00,Data write: 00
131,811870910.00,ACK
132,811891044.00,Start repeat
133,811901138.00,Address read: 41
134,811971132.00,Read
135,811981134.00,ACK
136,811993630.00,Data read: 00
137,812073632.00,NACK
138,812093432.00,Stop
139,812842582.00,Start
140,812852700.00,Address write: 40
141,812922696.00,Write
142,812932696.00,ACK
143,812945342.00,Data write: 20
144,813025344.00,ACK
145,813037940.00,Data write: 6D
146,813117942.00,ACK
147,813130538.00,Data write: AC
148,813210540.00,ACK
149,813223138.00,Data write: 01
150,813303138.00,ACK
151,813315738.00,Data write: 24
152,813395738.00,ACK
153,813408336.00,Data write: 00
154,813488336.00,ACK
155,813500934.00,Data write: 00
156,813580936.00,ACK
157,813593532.00,Data write: 04
158,813673534.00,ACK
159,813686132.00,Data write: 00
160,813766132.00,ACK
161,813778730.00,Data write: 78
162,813858732.00,ACK
163,813871330.00,Data write: 0A
164,813951330.00,ACK
165,813963928.00,Data write: 00
166,814043928.00,ACK
167,814056526.00,Data write: 00
168,814136528.00,ACK
169,814149124.00,Data write: D7
170,814229126.00,ACK
171,814241722.00,Data write: D9
172,814321724.00,ACK
173,814341348.00,Stop
174,815368520.00,Start
175,815378638.00,Address write: 40
176,815448634.00,Write
177,815458634.00,ACK
178,815471306.00,Data write: 02
179,815551308.00,ACK
180,815563902.00,Data write: A5
181,815643906.00,ACK
182,815663578.00,Stop
183,816236084.00,Start
184,816246202.00,Address write: 40
185,816316198.00,Write
186,818346322.00,ACK
187,818354362.00,Data write: FF
188,1019737160.00,ACK
189,1019747156.00,Data write: 80
190,1019829802.00,ACK
191,1019839804.00,Data write: 00
192,1019922600.00,NACK
193,1019929912.00,Start repeat
194,1019940006.00,Address read: 41
195,1020010000.00,Read
196,1020020000.00,ACK
197,1020032498.00,Data read: 03
198,1020112500.00,NACK
199,1020132300.00,Stop
200,1020750702.00,Start
201,1020760820.00,Address write: 40
202,1020830816.00,Write
203,1020840816.00,ACK
204,1020853462.00,Data write: 06
205,1020933464.00,ACK
206,1020953598.00,Start repeat
207,1020963692.00,Address read: 41
208,1021033686.00,Read
209,1021043686.00,ACK
210,1021056134.00,Data read: 0B
211,1021136138.00,ACK
212,1021148782.00,Data read: 00
213,1021228784.00,NACK
214,1021248610.00,Stop
215,1021887710.00,Start
216,1021897830.00,Address write: 40
217,1021967824.00,Write
218,1021977824.00,ACK
219,1021990472.00,Data write: 20
220,1022070472.00,ACK
221,1022090582.00,Start repeat
222,1022100674.00,Address read: 41
223,1022170670.00,Read
224,1022180670.00,ACK
225,1022193118.00,Data read: 6D
226,1022273120.00,ACK
227,1022285764.00,Data read: AC
228,1022365768.00,ACK
229,1022378414.00,Data read: 01
230,1022458418.00,ACK
231,1022471064.00,Data read: 24
232,1022551066.00,ACK
233,1022563662.00,Data read: 00
234,1022643664.00,ACK
235,1022656310.00,Data read: 00
236,1022736314.00,ACK
237,1022748958.00,Data read: 01
238,1022828964.00,ACK
239,1022841558.00,Data read: 00
240,1022921560.00,ACK
241,1022934208.00,Data read: 00
242,1023014210.00,ACK
243,1023026856.00,Data read: 47
244,1023106858.00,ACK
245,1023119504.00,Data read: 07
246,1023199506.00,NACK
247,1023219332.00,Stop
248,1024131078.00,Start
249,1024141196.00,Address write: 40
250,1024211192.00,Write
251,1024221192.00,ACK
252,1024233914.00,Data write: 02
253,1024313916.00,ACK
254,1024326512.00,Data write: 5A
255,1024406514.00,ACK
256,1024426162.00,Stop
257,1819845014.00,Start
258,1819855134.00,Address write: 40
259,1819925130.00,Write
260,1819935128.00,ACK
261,1819947826.00,Data write: 00
262,1820027826.00,ACK
263,1820047938.00,Start repeat
264,1820058030.00,Address read: 41
265,1820128024.00,Read
266,1820138026.00,ACK
267,1820150522.00,Data read: 00
268,1820230524.00,NACK
269,1820250324.00,Stop
270,1846441786.00,Start
271,1846451906.00,Address write: 40
272,1846521902.00,Write
273,1846531900.00,ACK
274,1846544548.00,Data write: 20
275,1846624550.00,ACK
276,1846637146.00,Data write: 6D
277,1846717148.00,ACK
278,1846729744.00,Data write: AC
279,1846809746.00,ACK
280,1846822344.00,Data write: 01
281,1846902344.00,ACK
282,1846914942.00,Data write: 22
283,1846994944.00,ACK
284,1847007542.00,Data write: 00
285,1847087542.00,ACK
286,1847100140.00,Data write: 00
287,1847180142.00,ACK
288,1847192738.00,Data write: 04
289,1847272740.00,ACK
290,1847285338.00,Data write: 02
291,1847365338.00,ACK
292,1847377936.00,Data write: 00
293,1847457938.00,ACK
294,1847470534.00,Data write: 20
295,1847550536.00,ACK
296,1847563134.00,Data write: 00
297,1847643134.00,ACK
298,1847655732.00,Data write: 00
299,1847735734.00,ACK
300,1847748330.00,Data write: 28
301,1847828332.00,ACK
302,1847840930.00,Data write: 06
303,1847920930.00,ACK
304,1847933528.00,Data write: 00
305,1848013530.00,ACK
306,1848026126.00,Data write: 20
307,1848106128.00,ACK
308,1848118724.00,Data write: D5
309,1848198726.00,ACK
310,1848211324.00,Data write: 00
311,1848291324.00,ACK
312,1848303922.00,Data write: 00
313,1848383924.00,ACK
314,1848396522.00,Data write: 00
315,1848476522.00,ACK
316,1848489118.00,Data write: EB
317,1848569120.00,ACK
318,1848581718.00,Data write: 00
319,1848661720.00,ACK
320,1848674318.00,Data write: 00
321,1848754318.00,ACK
322,1848766916.00,Data write: 00
323,1848846918.00,ACK
324,1848859514.00,Data write: 69
325,1848939516.00,ACK
326,1848952114.00,Data write: 06
327,1849032116.00,ACK
328,1849044712.00,Data write: 00
329,1849124714.00,ACK
330,1849137312.00,Data write: 00
331,1849217312.00,ACK
332,1849229910.00,Data write: 00
333,1849309910.00,ACK
334,1849322508.00,Data write: 00
335,1849402510.00,ACK
336,1849415108.00,Data write: 00
337,1849495108.00,ACK
338,1849507706.00,Data write: 00
339,1849587708.00,ACK
340,1849600304.00,Data write: 00
341,1849680304.00,ACK
342,1849692904.00,Data write: 00
343,1849772904.00,ACK
344,1849785502.00,Data write: 00
345,1849865502.00,ACK
346,1849878100.00,Data write: 00
347,1849958102.00,ACK
348,1849970698.00,Data write: 00
349,1850050700.00,ACK
350,1850063298.00,Data write: 00
351,1850143298.00,ACK
352,1850155896.00,Data write: 00
353,1850235898.00,ACK
354,1850248496.00,Data write: 00
355,1850328496.00,ACK
356,1850341094.00,Data write: 00
357,1850421096.00,ACK
358,1850433694.00,Data write: 00
359,1850513694.00,ACK
360,1850526292.00,Data write: 00
361,1850606292.00,ACK
362,1850618890.00,Data write: 00
363,1850698892.00,ACK
364,1850711488.00,Data write: 00
365,1850791490.00,ACK
366,1850804086.00,Data write: 00
367,1850884088.00,ACK
368,1850896686.00,Data write: 00
369,1850976688.00,ACK
370,1850989284.00,Data write: 00
371,1851069286.00,ACK
372,1851081882.00,Data write: 00
373,1851161884.00,ACK
374,1851174482.00,Data write: 00
375,1851254482.00,ACK
376,1851267080.00,Data write: 00
377,1851347082.00,ACK
378,1851359680.00,Data write: 00
379,1851439680.00,ACK
380,1851452278.00,Data write: 00
381,1851532280.00,ACK
382,1851544876.00,Data write: 00
383,1851624878.00,ACK
384,1851637476.00,Data write: 00
385,1851717476.00,ACK
386,1851730074.00,Data write: 00
387,1851810076.00,ACK
388,1851822672.00,Data write: EF
389,1851902674.00,ACK
390,1851915272.00,Data write: 00
391,1851995272.00,ACK
392,1852007870.00,Data write: 00
393,1852087872.00,ACK
394,1852100468.00,Data write: 00
395,1852180470.00,ACK
396,1852193068.00,Data write: 00
397,1852273068.00,ACK
398,1852285666.00,Data write: 00
399,1852365668.00,ACK
400,1852378266.00,Data write: 00
401,1852458266.00,ACK
402,1852470864.00,Data write: 00
403,1852550864.00,ACK
404,1852563462.00,Data write: 00
405,1852643464.00,ACK
406,1852656060.00,Data write: 00
407,1852736062.00,ACK
408,1852748660.00,Data write: 00
409,1852828660.00,ACK
410,1852841258.00,Data write: 00
411,1852921260.00,ACK
412,1852933856.00,Data write: F1
413,1853013858.00,ACK
414,1853026456.00,Data write: 00
415,1853106456.00,ACK
416,1853119054.00,Data write: 00
417,1853199056.00,ACK
418,1853211654.00,Data write: 00
419,1853291654.00,ACK
420,1853304252.00,Data write: 1D
421,1853384252.00,ACK
422,1853396850.00,Data write: 0A
423,1853476852.00,ACK
424,1853489450.00,Data write: 00
425,1853569450.00,ACK
426,1853582048.00,Data write: 00
427,1853662048.00,ACK
428,1853674646.00,Data write: F5
429,1853754646.00,ACK
430,1853767244.00,Data write: 09
431,1853847246.00,ACK
432,1853859844.00,Data write: 00
433,1853939846.00,ACK
434,1853952442.00,Data write: 00
435,1854032444.00,ACK
436,1854045040.00,Data write: FD
437,1854125040.00,ACK
438,1854137640.00,Data write: 09
439,1854217640.00,ACK
440,1854230238.00,Data write: 00
441,1854310240.00,ACK
442,1854322838.00,Data write: 00
443,1854402838.00,ACK
444,1854415436.00,Data write: 00
445,1854495438.00,ACK
446,1854508034.00,Data write: 00
447,1854588036.00,ACK
448,1854600634.00,Data write: 00
449,1854680634.00,ACK
450,1854693232.00,Data write: 00
451,1854773234.00,ACK
452,1854785830.00,Data write: 00
453,1854865832.00,ACK
454,1854878430.00,Data write: 00
455,1854958430.00,ACK
456,1854971028.00,Data write: 00
457,1855051030.00,ACK
458,1855063626.00,Data write: 00
459,1855143628.00,ACK
460,1855156226.00,Data write: 00
461,1855236226.00,ACK
462,1855248824.00,Data write: 00
463,1855328824.00,ACK
464,1855341422.00,Data write: 00
465,1855421424.00,ACK
466,1855434022.00,Data write: 00
467,1855514022.00,ACK
468,1855526620.00,Data write: 35
469,1855606620.00,ACK
470,1855619220.00,Data write: 01
471,1855699220.00,ACK
472,1855711818.00,Data write: 00
473,1855791820.00,ACK
474,1855804416.00,Data write: 00
475,1855884418.00,ACK
476,1855897014.00,Data write: 00
477,1855977016.00,ACK
478,1855989614.00,Data write: 00
479,1856069614.00,ACK
480,1856082212.00,Data write: 00
481,1856162214.00,ACK
482,1856174810.00,Data write: 00
483,1856254812.00,ACK
484,1856267408.00,Data write: 00
485,1856347410.00,ACK
486,1856360008.00,Data write: 00
487,1856440010.00,ACK
488,1856452606.00,Data write: 00
489,1856532608.00,ACK
490,1856545206.00,Data write: 00
491,1856625206.00,ACK
492,1856637802.00,Data write: EB
493,1856717806.00,ACK
494,1856730402.00,Data write: 06
495,1856810404.00,ACK
496,1856823002.00,Data write: 00
497,1856903002.00,ACK
498,1856915600.00,Data write: 00
499,1856995602.00,ACK
500,1857008198.00,Data write: F3
501,1857088200.00,ACK
502,1857100798.00,Data write: 06
503,1857180798.00,ACK
504,1857193396.00,Data write: 00
505,1857273398.00,ACK
506,1857285994.00,Data write: 00
507,1857365996.00,ACK
508,1857378594.00,Data write: 13
509,1857458594.00,ACK
510,1857471192.00,Data write: 0A
511,1857551194.00,ACK
512,1857563792.00,Data write: 00
513,1857643792.00,ACK
514,1857656390.00,Data write: 00
515,1857736390.00,ACK
516,1857748988.00,Data write: 00
517,1857828990.00,ACK
518,1857841586.00,Data write: 00
519,1857921588.00,ACK
520,1857934186.00,Data write: 00
521,1858014188.00,ACK
522,1858026784.00,Data write: 00
523,1858106786.00,ACK
524,1858119384.00,Data write: 00
525,1858199384.00,ACK
526,1858211982.00,Data write: 00
527,1858291984.00,ACK
528,1858304580.00,Data write: 00
529,1858384582.00,ACK
530,1858397180.00,Data write: 00
531,1858477180.00,ACK
532,1858489778.00,Data write: 00
533,1858569778.00,ACK
534,1858582376.00,Data write: 00
535,1858662378.00,ACK
536,1858674976.00,Data write: 00
537,1858754976.00,ACK
538,1858767574.00,Data write: 00
539,1858847576.00,ACK
540,1858860172.00,Data write: 41
541,1858940174.00,ACK
542,1858952772.00,Data write: 01
543,1859032772.00,ACK
544,1859045370.00,Data write: 00
545,1859125372.00,ACK
546,1859137968.00,Data write: 00
547,1859217970.00,ACK
548,1859230568.00,Data write: 49
549,1859310568.00,ACK
550,1859323166.00,Data write: 01
551,1859403166.00,ACK
552,1859415764.00,Data write: 00
553,1859495766.00,ACK
554,1859508364.00,Data write: 00
555,1859588364.00,ACK
556,1859600962.00,Data write: 00
557,1859680964.00,ACK
558,1859693562.00,Data write: 00
559,1859773562.00,ACK
560,1859786160.00,Data write: 00
561,1859866160.00,ACK
562,1859878758.00,Data write: 00
563,1859958760.00,ACK
564,1859971356.00,Data write: 00
565,1860051360.00,ACK
566,1860063956.00,Data write: 00
567,1860143956.00,ACK
568,1860156554.00,Data write: 00
569,1860236556.00,ACK
570,1860249154.00,Data write: 00
571,1860329156.00,ACK
572,1860341752.00,Data write: 61
573,1860421752.00,ACK
574,1860434350.00,Data write: 06
575,1860514352.00,ACK
576,1860526950.00,Data write: 00
577,1860606950.00,ACK
578,1860619548.00,Data write: 00
579,1860699550.00,ACK
580,1860712146.00,Data write: 00
581,1860792148.00,ACK
582,1860804746.00,Data write: 00
583,1860884746.00,ACK
584,1860897344.00,Data write: 00
585,1860977344.00,ACK
586,1860989942.00,Data write: 00
587,1861069944.00,ACK
588,1861082542.00,Data write: 00
589,1861162542.00,ACK
590,1861175140.00,Data write: 00
591,1861255142.00,ACK
592,1861267738.00,Data write: 00
593,1861347740.00,ACK
594,1861360338.00,Data write: 00
595,1861440338.00,ACK
596,1861452936.00,Data write: 00
597,1861532938.00,ACK
598,1861545534.00,Data write: 00
599,1861625536.00,ACK
600,1861638132.00,Data write: 00
601,1861718134.00,ACK
602,1861730732.00,Data write: 00
603,1861810734.00,ACK
604,1861823330.00,Data write: E1
605,1861903330.00,ACK
606,1861915930.00,Data write: 06
607,1861995930.00,ACK
608,1862008528.00,Data write: 00
609,1862088528.00,ACK
610,1862101126.00,Data write: 00
611,1862181128.00,ACK
612,1862193726.00,Data write: 09
613,1862273726.00,ACK
614,1862286324.00,Data write: 0A
615,1862366324.00,ACK
616,1862378922.00,Data write: 00
617,1862458924.00,ACK
618,1862471522.00,Data write: 00
619,1862551522.00,ACK
620,1862564120.00,Data write: 2D
621,1862644120.00,ACK
622,1862656718.00,Data write: 01
623,1862736720.00,ACK
624,1862749318.00,Data write: 00
625,1862829318.00,ACK
626,1862841916.00,Data write: 00
627,1862921918.00,ACK
628,1862934514.00,Data write: 00
629,1863014516.00,ACK
630,1863027114.00,Data write: 00
631,1863107114.00,ACK
632,1863119712.00,Data write: 00
633,1863199714.00,ACK
634,1863212310.00,Data write: 00
635,1863292312.00,ACK
636,1863304910.00,Data write: 27
637,1863384910.00,ACK
638,1863397508.00,Data write: 0A
639,1863477510.00,ACK
640,1863490106.00,Data write: 00
641,1863570108.00,ACK
642,1863582706.00,Data write: 00
643,1863662706.00,ACK
644,1863675304.00,Data write: 2F
645,1863755304.00,ACK
646,1863767902.00,Data write: 0A
647,1863847904.00,ACK
648,1863860502.00,Data write: 00
649,1863940502.00,ACK
650,1863953100.00,Data write: 00
651,1864033102.00,ACK
652,1864045696.00,Data write: FB
653,1864125700.00,ACK
654,1864138298.00,Data write: 06
655,1864218298.00,ACK
656,1864230896.00,Data write: 00
657,1864310896.00,ACK
658,1864323494.00,Data write: 00
659,1864403496.00,ACK
660,1864416094.00,Data write: 00
661,1864496094.00,ACK
662,1864508692.00,Data write: 00
663,1864588694.00,ACK
664,1864601292.00,Data write: 00
665,1864681292.00,ACK
666,1864693890.00,Data write: 00
667,1864773890.00,ACK
668,1864786488.00,Data write: 29
669,1864866490.00,ACK
670,1864879088.00,Data write: 02
671,1864959088.00,ACK
672,1864971686.00,Data write: 00
673,1865051688.00,ACK
674,1865064284.00,Data write: 00
675,1865144286.00,ACK
676,1865156884.00,Data write: 51
677,1865236884.00,ACK
678,1865249482.00,Data write: 01
679,1865329482.00,ACK
680,1865342080.00,Data write: 00
681,1865422082.00,ACK
682,1865434680.00,Data write: 00
683,1865514680.00,ACK
684,1865527278.00,Data write: 03
685,1865607278.00,ACK
686,1865619876.00,Data write: 48
687,1865699880.00,ACK
688,1865712474.00,Data write: 85
689,1865792476.00,ACK
690,1865805074.00,Data write: 46
691,1865885076.00,ACK
692,1865897672.00,Data write: 00
693,1865977674.00,ACK
694,1865990270.00,Data write: F0
695,1866070272.00,ACK
696,1866082870.00,Data write: 20
697,1866162872.00,ACK
698,1866175466.00,Data write: F8
699,1866255470.00,ACK
700,1866268068.00,Data write: 00
701,1866348068.00,ACK
702,1866360666.00,Data write: 48
703,1866440668.00,ACK
704,1866453266.00,Data write: 00
705,1866533266.00,ACK
706,1866545864.00,Data write: 47
707,1866625864.00,ACK
708,1866638462.00,Data write: 3B
709,1866718462.00,ACK
710,1866731060.00,Data write: 0A
711,1866811062.00,ACK
712,1866823660.00,Data write: 00
713,1866903660.00,ACK
714,1866916258.00,Data write: 00
715,1866996260.00,ACK
716,1867008856.00,Data write: 28
717,1867088858.00,ACK
718,1867101456.00,Data write: 06
719,1867181456.00,ACK
720,1867194054.00,Data write: 00
721,1867274056.00,ACK
722,1867286652.00,Data write: 20
723,1867366654.00,ACK
724,1867379252.00,Data write: 08
725,1867459252.00,ACK
726,1867471850.00,Data write: 48
727,1867551852.00,ACK
728,1867564450.00,Data write: 09
729,1867644450.00,ACK
730,1867657048.00,Data write: 4A
731,1867737048.00,ACK
732,1867749646.00,Data write: 00
733,1867829648.00,ACK
734,1867842246.00,Data write: 21
735,1867922246.00,ACK
736,1867934844.00,Data write: 00
737,1868014846.00,ACK
738,1868027440.00,Data write: A1
739,1868107442.00,ACK
740,1868120038.00,Data write: 81
741,1868200042.00,ACK
742,1868212640.00,Data write: 42
743,1868292642.00,ACK
744,1868305238.00,Data write: 00
745,1868385240.00,ACK
746,1868397836.00,Data write: D9
747,1868477838.00,ACK
748,1868490436.00,Data write: 02
749,1868570436.00,ACK
750,1868583034.00,Data write: 44
751,1868663036.00,ACK
752,1868675634.00,Data write: 07
753,1868755634.00,ACK
754,1868768232.00,Data write: 48
755,1868848234.00,ACK
756,1868860830.00,Data write: 02
757,1868940832.00,ACK
758,1868953430.00,Data write: 60
759,1869033430.00,ACK
760,1869046028.00,Data write: 07
761,1869126028.00,ACK
762,1869138626.00,Data write: 48
763,1869218628.00,ACK
764,1869231226.00,Data write: 00
765,1869311226.00,ACK
766,1869323824.00,Data write: 47
767,1869403826.00,ACK
768,1869416420.00,Data write: FE
769,1869496424.00,ACK
770,1869509018.00,Data write: E7
771,1869589022.00,ACK
772,1869601618.00,Data write: FE
773,1869681622.00,ACK
774,1869694216.00,Data write: E7
775,1869774220.00,ACK
776,1869786816.00,Data write: FE
777,1869866818.00,ACK
778,1869879414.00,Data write: E7
779,1869959416.00,ACK
780,1869972012.00,Data write: FE
781,1870052016.00,ACK
782,1870064612.00,Data write: E7
783,1870144614.00,ACK
784,1870157210.00,Data write: FE
785,1870237212.00,ACK
786,1870249808.00,Data write: E7
787,1870329812.00,ACK
788,1870342408.00,Data write: FE
789,1870422410.00,ACK
790,1870435006.00,Data write: E7
791,1870515010.00,ACK
792,1870527606.00,Data write: 00
793,1870607608.00,ACK
794,1870620206.00,Data write: 00
795,1870700206.00,ACK
796,1870712804.00,Data write: 00
797,1870792804.00,ACK
798,1870805404.00,Data write: 00
799,1870885404.00,ACK
800,1870898002.00,Data write: 00
801,1870978002.00,ACK
802,1870990600.00,Data write: 20
803,1871070602.00,ACK
804,1871083200.00,Data write: 00
805,1871163200.00,ACK
806,1871175798.00,Data write: 00
807,1871255800.00,ACK
808,1871268470.00,Data write: 00
809,1871348472.00,ACK
810,1871361070.00,Data write: 00
811,1871441070.00,ACK
812,1871453668.00,Data write: 08
813,1871533670.00,ACK
814,1871546266.00,Data write: ED
815,1871626268.00,ACK
816,1871638866.00,Data write: 00
817,1871718866.00,ACK
818,1871731462.00,Data write: E0
819,1871811466.00,ACK
820,1871824062.00,Data write: C1
821,1871904064.00,ACK
822,1871916662.00,Data write: 00
823,1871996664.00,ACK
824,1872009262.00,Data write: 00
825,1872089262.00,ACK
826,1872101860.00,Data write: 00
827,1872181860.00,ACK
828,1872194458.00,Data write: 06
829,1872274460.00,ACK
830,1872287058.00,Data write: 4C
831,1872367058.00,ACK
832,1872379656.00,Data write: 01
833,1872459656.00,ACK
834,1872472254.00,Data write: 25
835,1872552256.00,ACK
836,1872564852.00,Data write: 06
837,1872644854.00,ACK
838,1872657452.00,Data write: 4E
839,1872737452.00,ACK
840,1872750050.00,Data write: 05
841,1872830050.00,ACK
842,1872842648.00,Data write: E0
843,1872922650.00,ACK
844,1872935246.00,Data write: E3
845,1873015248.00,ACK
846,1873027846.00,Data write: 68
847,1873107848.00,ACK
848,1873120444.00,Data write: 07
849,1873200446.00,ACK
850,1873213042.00,Data write: CC
851,1873293046.00,ACK
852,1873305642.00,Data write: 2B
853,1873385642.00,ACK
854,1873398242.00,Data write: 43
855,1873478242.00,ACK
856,1873490840.00,Data write: 0C
857,1873570840.00,ACK
858,1873583438.00,Data write: 3C
859,1873663440.00,ACK
860,1873676036.00,Data write: 98
861,1873756038.00,ACK
862,1873775632.00,Data write: 47
863,1873855636.00,ACK
864,1873868234.00,Data write: 10
865,1873948236.00,ACK
866,1873960834.00,Data write: 34
867,1874040834.00,ACK
868,1874053430.00,Data write: B4
869,1874133434.00,ACK
870,1874146030.00,Data write: 42
871,1874226032.00,ACK
872,1874238628.00,Data write: F7
873,1874318630.00,ACK
874,1874331226.00,Data write: D3
875,1874411228.00,ACK
876,1874423824.00,Data write: FF
877,1874503828.00,ACK
878,1874516424.00,Data write: F7
879,1874596426.00,ACK
880,1874609022.00,Data write: D2
881,1874689026.00,ACK
882,1874701620.00,Data write: FF
883,1874781624.00,ACK
884,1874794220.00,Data write: 68
885,1874874222.00,ACK
886,1874886820.00,Data write: 0A
887,1874966822.00,ACK
888,1874979418.00,Data write: 00
889,1875059420.00,ACK
890,1875072018.00,Data write: 00
891,1875152018.00,ACK
892,1875164616.00,Data write: 78
893,1875244618.00,ACK
894,1875257214.00,Data write: 0A
895,1875337216.00,ACK
896,1875349814.00,Data write: 00
897,1875429814.00,ACK
898,1875442412.00,Data write: 00
899,1875522414.00,ACK
900,1875535008.00,Data write: 80
901,1875615012.00,ACK
902,1875627608.00,Data write: B5
903,1875707610.00,ACK
904,1875720208.00,Data write: 00
905,1875800210.00,ACK
906,1875812804.00,Data write: F0
907,1875892808.00,ACK
908,1875905406.00,Data write: 05
909,1875985406.00,ACK
910,1875998002.00,Data write: F8
911,1876078006.00,ACK
912,1876090600.00,Data write: 80
913,1876170604.00,ACK
914,1876183200.00,Data write: BD
915,1876263202.00,ACK
916,1876275798.00,Data write: 80
917,1876355802.00,ACK
918,1876368398.00,Data write: B5
919,1876448400.00,ACK
920,1876460998.00,Data write: 00
921,1876540998.00,ACK
922,1876553594.00,Data write: F0
923,1876633598.00,ACK
924,1876646196.00,Data write: 02
925,1876726196.00,ACK
926,1876738792.00,Data write: F8
927,1876818794.00,ACK
928,1876831390.00,Data write: 80
929,1876911394.00,ACK
930,1876923990.00,Data write: BD
931,1877003992.00,ACK
932,1877016590.00,Data write: 70
933,1877096590.00,ACK
934,1877109188.00,Data write: 47
935,1877189188.00,ACK
936,1877201786.00,Data write: 70
937,1877281788.00,ACK
938,1877294386.00,Data write: 47
939,1877374386.00,ACK
940,1877386982.00,Data write: 80
941,1877466986.00,ACK
942,1877479582.00,Data write: B5
943,1877559584.00,ACK
944,1877572182.00,Data write: 00
945,1877652182.00,ACK
946,1877664778.00,Data write: F0
947,1877744782.00,ACK
948,1877757380.00,Data write: 09
949,1877837380.00,ACK
950,1877849976.00,Data write: F8
951,1877929978.00,ACK
952,1877942574.00,Data write: 80
953,1878022578.00,ACK
954,1878035174.00,Data write: BD
955,1878115176.00,ACK
956,1878127772.00,Data write: 80
957,1878207774.00,ACK
958,1878220370.00,Data write: B5
959,1878300372.00,ACK
960,1878312970.00,Data write: 00
961,1878392972.00,ACK
962,1878405568.00,Data write: F0
963,1878485570.00,ACK
964,1878498168.00,Data write: 27
965,1878578168.00,ACK
966,1878590766.00,Data write: F8
967,1878670768.00,ACK
968,1878683364.00,Data write: 80
969,1878763368.00,ACK
970,1878775988.00,Data write: BD
971,1878855990.00,ACK
972,1878868586.00,Data write: 80
973,1878948588.00,ACK
974,1878961184.00,Data write: B5
975,1879041188.00,ACK
976,1879053786.00,Data write: 00
977,1879133786.00,ACK
978,1879146384.00,Data write: F0
979,1879226386.00,ACK
980,1879238984.00,Data write: 24
981,1879318984.00,ACK
982,1879331580.00,Data write: F8
983,1879411584.00,ACK
984,1879424178.00,Data write: 80
985,1879504182.00,ACK
986,1879516776.00,Data write: BD
987,1879596780.00,ACK
988,1879609378.00,Data write: 10
989,1879689378.00,ACK
990,1879701974.00,Data write: B5
991,1879781976.00,ACK
992,1879794576.00,Data write: 00
993,1879874576.00,ACK
994,1879887172.00,Data write: F0
995,1879967176.00,ACK
996,1879979772.00,Data write: 9D
997,1880059772.00,ACK
998,1880072370.00,Data write: F9
999,1880152372.00,ACK
1000,1880164970.00,Data write: 00
1001,1880244970.00,ACK
1002,1880257568.00,Data write: 28
1003,1880337570.00,ACK
1004,1880350168.00,Data write: 17
1005,1880430168.00,ACK
1006,1880442764.00,Data write: D0
1007,1880522768.00,ACK
1008,1880535364.00,Data write: 00
1009,1880615366.00,ACK
1010,1880627962.00,Data write: F0
1011,1880707964.00,ACK
1012,1880720560.00,Data write: 93
1013,1880800562.00,ACK
1014,1880813158.00,Data write: F8
1015,1880893162.00,ACK
1016,1880905760.00,Data write: 0B
1017,1880985760.00,ACK
1018,1880998358.00,Data write: 48
1019,1881078360.00,ACK
1020,1881090956.00,Data write: 42
1021,1881170958.00,ACK
1022,1881183554.00,Data write: 68
1023,1881263556.00,ACK
1024,1881276154.00,Data write: 51
1025,1881356154.00,ACK
1026,1881368754.00,Data write: 1C
1027,1881448754.00,ACK
1028,1881461352.00,Data write: 41
1029,1881541352.00,ACK
1030,1881553950.00,Data write: 60
1031,1881633950.00,ACK
1032,1881646548.00,Data write: 03
1033,1881726550.00,ACK
1034,1881739148.00,Data write: 68
1035,1881819148.00,ACK
1036,1881831746.00,Data write: 5C
1037,1881911746.00,ACK
1038,1881924346.00,Data write: 1E
1039,1882004346.00,ACK
1040,1882016944.00,Data write: 01
1041,1882096944.00,ACK
1042,1882109542.00,Data write: 2C
1043,1882189544.00,ACK
1044,1882202140.00,Data write: 04
1045,1882282142.00,ACK
1046,1882294738.00,Data write: D8
1047,1882374742.00,ACK
1048,1882387336.00,Data write: 92
1049,1882467340.00,ACK
1050,1882479936.00,Data write: 1C
1051,1882559938.00,ACK
1052,1882572536.00,Data write: 42
1053,1882652538.00,ACK
1054,1882665134.00,Data write: 60
1055,1882745136.00,ACK
1056,1882757734.00,Data write: 0B
1057,1882837734.00,ACK
1058,1882850332.00,Data write: 29
1059,1882930332.00,ACK
1060,1882942930.00,Data write: 07
1061,1883022930.00,ACK
1062,1883035528.00,Data write: D2
1063,1883115530.00,ACK
1064,1883128128.00,Data write: 08
1065,1883208130.00,ACK
1066,1883220724.00,Data write: E0
1067,1883300728.00,ACK
1068,1883313324.00,Data write: 03
1069,1883393326.00,ACK
1070,1883405924.00,Data write: 2B
1071,1883485924.00,ACK
1072,1883498522.00,Data write: 06
1073,1883578524.00,ACK
1074,1883591118.00,Data write: D1
1075,1883671122.00,ACK
1076,1883683718.00,Data write: 92
1077,1883763720.00,ACK
1078,1883777316.00,Data write: 1C
1079,1883857320.00,ACK
1080,1883869918.00,Data write: 42
1081,1883949918.00,ACK
1082,1883962516.00,Data write: 60
1083,1884042518.00,ACK
1084,1884055114.00,Data write: 03
1085,1884135114.00,ACK
1086,1884147712.00,Data write: 4A
1087,1884227714.00,ACK
1088,1884240310.00,Data write: 91
1089,1884320312.00,ACK
1090,1884332910.00,Data write: 42
1091,1884412912.00,ACK
1092,1884425510.00,Data write: 01
1093,1884505510.00,ACK
1094,1884518106.00,Data write: D3
1095,1884598108.00,ACK
1096,1884610706.00,Data write: 00
1097,1884690708.00,ACK
1098,1884703306.00,Data write: 21
1099,1884783306.00,ACK
1100,1884795904.00,Data write: 01
1101,1884875904.00,ACK
1102,1884888502.00,Data write: 60
1103,1884968504.00,ACK
1104,1884981102.00,Data write: 10
1105,1885061102.00,ACK
1106,1885073698.00,Data write: BD
1107,1885153700.00,ACK
1108,1885166298.00,Data write: 00
1109,1885246300.00,ACK
1110,1885258898.00,Data write: 00
1111,1885338898.00,ACK
1112,1885351496.00,Data write: 00
1113,1885431498.00,ACK
1114,1885444096.00,Data write: 20
1115,1885524096.00,ACK
1116,1885536692.00,Data write: 95
1117,1885616694.00,ACK
1118,1885629292.00,Data write: 11
1119,1885709292.00,ACK
1120,1885721890.00,Data write: 00
1121,1885801892.00,ACK
1122,1885814490.00,Data write: 00
1123,1885894490.00,ACK
1124,1885907088.00,Data write: 70
1125,1885987088.00,ACK
1126,1885999686.00,Data write: 47
1127,1886079688.00,ACK
1128,1886092286.00,Data write: 70
1129,1886172286.00,ACK
1130,1886184884.00,Data write: 47
1131,1886264886.00,ACK
1132,1886277482.00,Data write: B0
1133,1886357484.00,ACK
1134,1886370080.00,Data write: B5
1135,1886450082.00,ACK
1136,1886462680.00,Data write: 00
1137,1886542682.00,ACK
1138,1886555280.00,Data write: 28
1139,1886635280.00,ACK
1140,1886647878.00,Data write: 0B
1141,1886727878.00,ACK
1142,1886740474.00,Data write: DB
1143,1886820476.00,ACK
1144,1886833076.00,Data write: 1F
1145,1886913076.00,ACK
1146,1886925674.00,Data write: 23
1147,1887005674.00,ACK
1148,1887018272.00,Data write: 03
1149,1887098272.00,ACK
1150,1887110870.00,Data write: 40
1151,1887190872.00,ACK
1152,1887203470.00,Data write: 01
1153,1887283470.00,ACK
1154,1887296068.00,Data write: 24
1155,1887376070.00,ACK
1156,1887388666.00,Data write: 9C
1157,1887468668.00,ACK
1158,1887481266.00,Data write: 40
1159,1887561266.00,ACK
1160,1887573864.00,Data write: 1B
1161,1887653866.00,ACK
1162,1887666464.00,Data write: 4B
1163,1887746464.00,ACK
1164,1887759062.00,Data write: 1C
1165,1887839064.00,ACK
1166,1887851660.00,Data write: 60
1167,1887931662.00,ACK
1168,1887944260.00,Data write: 03
1169,1888024260.00,ACK
1170,1888036858.00,Data write: 23
1171,1888116858.00,ACK
1172,1888129456.00,Data write: 04
1173,1888209458.00,ACK
1174,1888222056.00,Data write: 46
1175,1888302056.00,ACK
1176,1888314652.00,Data write: 9C
1177,1888394656.00,ACK
1178,1888407252.00,Data write: 43
1179,1888487254.00,ACK
1180,1888499852.00,Data write: 19
1181,1888579852.00,ACK
1182,1888592450.00,Data write: 4B
1183,1888672450.00,ACK
1184,1888685046.00,Data write: E3
1185,1888765050.00,ACK
1186,1888777648.00,Data write: 18
1187,1888857648.00,ACK
1188,1888870246.00,Data write: 06
1189,1888950248.00,ACK
1190,1888962842.00,Data write: E0
1191,1889042846.00,ACK
1192,1889055444.00,Data write: 0F
1193,1889135444.00,ACK
1194,1889148042.00,Data write: 23
1195,1889228042.00,ACK
1196,1889240640.00,Data write: 03
1197,1889320642.00,ACK
1198,1889333238.00,Data write: 40
1199,1889413240.00,ACK
1200,1889425838.00,Data write: 08
1201,1889505840.00,ACK
1202,1889518436.00,Data write: 3B
1203,1889598438.00,ACK
1204,1889611036.00,Data write: 03
1205,1889691036.00,ACK
1206,1889703634.00,Data write: 24
1207,1889783636.00,ACK
1208,1889796232.00,Data write: A3
1209,1889876234.00,ACK
1210,1889888832.00,Data write: 43
1211,1889968832.00,ACK
1212,1889981428.00,Data write: 13
1213,1890061430.00,ACK
1214,1890074028.00,Data write: 4C
1215,1890154030.00,ACK
1216,1890166628.00,Data write: 1B
1217,1890246628.00,ACK
1218,1890259226.00,Data write: 19
1219,1890339226.00,ACK
1220,1890351824.00,Data write: C4
1221,1890431826.00,ACK
1222,1890444424.00,Data write: 00
1223,1890524426.00,ACK
1224,1890537022.00,Data write: 18
1225,1890617024.00,ACK
1226,1890629622.00,Data write: 25
1227,1890709622.00,ACK
1228,1890722220.00,Data write: 25
1229,1890802220.00,ACK
1230,1890814818.00,Data write: 40
1231,1890894820.00,ACK
1232,1890907416.00,Data write: 89
1233,1890987418.00,ACK
1234,1891000016.00,Data write: 01
1235,1891080016.00,ACK
1236,1891092612.00,Data write: C9
1237,1891172616.00,ACK
1238,1891185212.00,Data write: B2
1239,1891265214.00,ACK
1240,1891277810.00,Data write: A9
1241,1891357812.00,ACK
1242,1891370410.00,Data write: 40
1243,1891450412.00,ACK
1244,1891463008.00,Data write: FF
1245,1891543010.00,ACK
1246,1891555608.00,Data write: 24
1247,1891635608.00,ACK
1248,1891648204.00,Data write: AC
1249,1891728208.00,ACK
1250,1891740806.00,Data write: 40
1251,1891820806.00,ACK
1252,1891833404.00,Data write: 1D
1253,1891913404.00,ACK
1254,1891926002.00,Data write: 68
1255,1892006004.00,ACK
1256,1892018600.00,Data write: A5
1257,1892098602.00,ACK
1258,1892111200.00,Data write: 43
1259,1892191200.00,ACK
1260,1892203798.00,Data write: 0D
1261,1892283798.00,ACK
1262,1892296396.00,Data write: 43
1263,1892376398.00,ACK
1264,1892388996.00,Data write: 1D
1265,1892468996.00,ACK
1266,1892481594.00,Data write: 60
1267,1892561596.00,ACK
1268,1892574194.00,Data write: 01
1269,1892654194.00,ACK
1270,1892666792.00,Data write: 2A
1271,1892746794.00,ACK
1272,1892759390.00,Data write: 08
1273,1892839392.00,ACK
1274,1892851988.00,Data write: D1
1275,1892931990.00,ACK
1276,1892944588.00,Data write: 00
1277,1893024590.00,ACK
1278,1893037186.00,Data write: 28
1279,1893117188.00,ACK
1280,1893129786.00,Data write: 13
1281,1893209786.00,ACK
1282,1893222382.00,Data write: DB
1283,1893302384.00,ACK
1284,1893314982.00,Data write: 1F
1285,1893394984.00,ACK
1286,1893407580.00,Data write: 21
1287,1893487582.00,ACK
1288,1893500180.00,Data write: 08
1289,1893580182.00,ACK
1290,1893592778.00,Data write: 40
1291,1893672780.00,ACK
1292,1893685378.00,Data write: 01
1293,1893765378.00,ACK
1294,1893777976.00,Data write: 21
1295,1893857976.00,ACK
1296,1893870574.00,Data write: 81
1297,1893950576.00,ACK
1298,1893963174.00,Data write: 40
1299,1894043176.00,ACK
1300,1894055772.00,Data write: 0B
1301,1894135772.00,ACK
1302,1894148370.00,Data write: 48
1303,1894228372.00,ACK
1304,1894240970.00,Data write: 01
1305,1894320970.00,ACK
1306,1894333568.00,Data write: 60
1307,1894413570.00,ACK
1308,1894426166.00,Data write: B0
1309,1894506168.00,ACK
1310,1894518764.00,Data write: BD
1311,1894598766.00,ACK
1312,1894611364.00,Data write: 00
1313,1894691366.00,ACK
1314,1894703964.00,Data write: 28
1315,1894783964.00,ACK
1316,1894796562.00,Data write: 0A
1317,1894876562.00,ACK
1318,1894889158.00,Data write: DB
1319,1894969160.00,ACK
1320,1894981760.00,Data write: 1F
1321,1895061760.00,ACK
1322,1895074358.00,Data write: 21
1323,1895154358.00,ACK
1324,1895166956.00,Data write: 55
1325,1895246958.00,ACK
1326,1895259554.00,Data write: 5D
1327,1895339556.00,ACK
1328,1895359180.00,Stop
1329,4906714306.00,Start
1330,4906724426.00,Address write: 40
1331,4906794422.00,Write
1332,4906804422.00,ACK
1333,4906817094.00,Data write: 02
1334,4906897094.00,ACK
1335,4906909766.00,Data write: A5
1336,4906989768.00,ACK
1337,4907009392.00,Stop
1338,4907739292.00,Start
1339,4907749412.00,Address write: 40
1340,4907819406.00,Write
1341,4907829406.00,ACK
1342,4907842030.00,Data write: 00
1343,4907922030.00,ACK
1344,4907942164.00,Start repeat
1345,4907952258.00,Address read: 41
1346,4908022252.00,Read
1347,4908032252.00,ACK
1348,4908044726.00,Data read: 04
1349,4908124726.00,NACK
1350,4908144578.00,Stop
1351,4908833376.00,Start
1352,4908843496.00,Address write: 40
1353,4908913492.00,Write
1354,4908923490.00,ACK
1355,4908936138.00,Data write: 01
1356,4909016138.00,ACK
1357,4909036250.00,Start repeat
1358,4909046342.00,Address read: 41
1359,4909116338.00,Read
1360,4909126338.00,ACK
1361,4909138834.00,Data read: 02
1362,4909218836.00,NACK
1363,4909238662.00,Stop
1364,4909903886.00,Start
1365,4909914006.00,Address write: 40
1366,4909984000.00,Write
1367,4909994000.00,ACK
1368,4910006722.00,Data write: 02
1369,4910086724.00,ACK
1370,4910099322.00,Data write: 5A
1371,4910179324.00,ACK
1372,4910198970.00,Stop
